# Hz    S   RI   R   50.0
4000000000.0  0.001429803  -0.002728612  -0.0001321154  -8.886907e-05  -0.001617871  0.005662874  -0.002887787  0.009868882  
4004004004.0  -0.002493882  -0.00132547  -0.0001080272  4.511335e-05  0.005937606  0.001712887  0.009903018  0.003074684  
4008008008.01  -0.001030473  0.002502477  5.306617e-05  0.0001942801  0.001868856  -0.006003048  0.003201889  -0.009922171  
4012012012.01  0.002364359  0.0007353942  0.0002245285  -0.0001024589  -0.006137349  -0.001919959  -0.009928539  -0.003359588  
4016016016.02  0.0005045423  -0.002314734  -0.0001041479  -0.0003243049  -0.001861569  0.006088934  -0.003407522  0.009819037  
4020020020.02  -0.002267285  -0.0003137639  -0.0002350464  0.0001488051  0.00576022  0.00195024  0.009463746  0.003526407  
4024024024.02  -0.0001397445  0.002275848  0.0001534266  0.0002980369  0.002061188  -0.005590798  0.00377354  -0.009276979  
4028028028.03  0.002343007  -0.0002078236  0.0003362555  -0.0002249948  -0.005385589  -0.002208041  -0.009078749  -0.003871476  
4032032032.03  -0.0002731893  -0.002304386  -0.0001847653  -0.0002681609  -0.002175711  0.005021231  -0.004012467  0.008774037  
4036036036.04  -0.002447698  0.0005389825  -0.0002859384  0.0002360996  0.004572922  0.002358927  0.008549304  0.004245131  
4040040040.04  0.0008021828  0.002561742  0.0002114483  0.0002816039  0.002570519  -0.004094768  0.004326786  -0.008176593  
4044044044.04  0.002584642  -0.001064838  0.0002378528  -0.0002333632  -0.003767496  -0.002737193  -0.00800887  -0.004448209  
4048048048.05  -0.001214154  -0.002663356  -0.0001388775  -0.0001925939  -0.00288021  0.003362436  -0.004484713  0.007725704  
4052052052.05  -0.002793809  0.00140997  -0.0002312361  0.0001364191  0.002906607  0.003072522  0.007439438  0.004511845  
4056056056.06  0.001601772  0.002941712  2.376678e-05  0.0002626298  0.003259492  -0.002460764  0.004472636  -0.007178957  
4060060060.06  0.003148549  -0.001799724  0.0003277251  1.289951e-05  -0.002029747  -0.003433712  -0.006838429  -0.004319512  
4064064064.06  -0.002120092  -0.003307377  -8.559156e-05  -0.0003854852  -0.00354707  0.001575629  -0.004186288  0.006405565  
4068068068.07  -0.003269302  0.002409908  -0.0002573504  0.000202643  0.001140104  0.003834674  0.005998147  0.004198198  
4072072072.07  0.00255668  0.003342096  8.191579e-05  0.0002170584  0.003930013  -0.0008354093  0.003919731  -0.005653359  
4076076076.08  0.003347713  -0.002599343  0.0001485101  -1.652203e-05  -0.0004935968  -0.003972611  -0.005129624  -0.003602879  
4080080080.08  -0.002600045  -0.003439274  7.062674e-05  -0.0002462146  -0.003897727  0.0001664745  -0.003339645  0.004596864  
4084084084.08  -0.003651956  0.002813926  -0.0003019558  -4.960078e-05  -0.0003226409  0.003911325  0.004029552  0.003232608  
4088088088.09  0.003051358  0.003753355  3.132515e-05  0.0002993703  0.004091114  0.0006611582  0.003044003  -0.003508146  
4092092092.09  0.003677695  -0.003025026  0.0002372865  -2.949183e-05  0.0008674977  -0.004003159  -0.003056999  -0.00282054  
4096096096.1  -0.00314816  -0.003665775  2.108587e-05  -0.0001749407  -0.003840744  -0.001149813  -0.002464631  0.002571272  
4100100100.1  -0.00360781  0.003095633  -0.0001696479  -0.0001013863  -0.001385937  0.003687307  0.002032937  0.002157442  
4104104104.1  0.002986468  0.003719706  -0.0001548537  0.0002170274  0.00343628  0.001721591  0.001942441  -0.00151037  
4108108108.11  0.00364401  -0.002806928  0.0001883261  0.0003429613  0.001976406  -0.00320069  -0.001060681  -0.0015725  
4112112112.11  -0.0027798  -0.003712924  0.0002681981  -0.0003891045  -0.002904613  -0.002168747  -0.00132749  0.0006755155  
4116116116.12  -0.00381182  0.002717739  -0.0004156534  -0.0001249486  -0.002376702  0.0025492  0.0001870508  0.0008551287  
4120120120.12  0.002723708  0.003728861  9.6814e-06  0.0003070254  0.002228632  0.00258025  0.0005734551  0.0002296437  
4124124124.12  0.003607877  -0.002473959  0.0002200738  5.782759e-05  0.002727039  -0.001754119  0.0005125244  -6.565614e-05  
4128128128.13  -0.002222601  -0.003551733  0.0001030185  -8.933382e-05  -0.001206583  -0.003000467  0.0004086475  -0.001004115  
4132132132.13  -0.003606683  0.001960637  -0.000127281  -0.0001830767  -0.003188144  0.0007802966  -0.001295101  -0.0008534144  
4136136136.14  0.001759385  0.003542171  -7.576564e-05  0.0001241963  0.0002898107  0.003376461  -0.001355653  0.001700027  
4140140140.14  0.003467213  -0.001436528  3.425055e-05  0.0001607448  0.003528522  0.0003303149  0.002038318  0.00189309  
4144144144.14  -0.00108214  -0.003392425  0.0001950958  -8.44528e-05  0.0009549338  -0.003813151  0.002431293  -0.002459582  
4148148148.15  -0.003416428  0.0008239771  -6.417462e-05  -0.0001206935  -0.004055191  -0.001357784  -0.0028045  -0.002726719  
4152152152.15  0.0004357879  0.003294409  -8.174303e-05  -2.079574e-05  -0.001935517  0.004171748  -0.003255249  0.003018796  
4156156156.16  0.003227144  4.516948e-05  -0.0001051776  0.000141667  0.004336813  0.002623603  0.003249072  0.003865984  
4160160160.16  0.0003970973  -0.003277048  0.0001537452  6.078588e-05  0.003192589  -0.004543836  0.00441886  -0.00346321  
4164164164.16  -0.003233949  -0.0007731434  9.458168e-05  -0.0001676397  -0.004736666  -0.003748163  -0.003814688  -0.004947886  
4168168168.17  -0.001156505  0.003225778  -0.0001625976  -0.0001950264  -0.004281017  0.004894691  -0.005434365  0.004020161  
4172172172.17  0.003128167  0.001576929  -0.0002042551  0.0002294846  0.004994223  0.004779648  0.004261076  0.005943388  
4176176176.18  0.001922634  -0.003180741  0.0002081319  0.0001746353  0.005225654  -0.005102138  0.006313272  -0.004485646  
4180180180.18  -0.003106425  -0.002312397  0.0001572805  -0.0002101566  -0.005115964  -0.005708963  -0.004596553  -0.006757073  
4184184184.18  -0.002611425  0.003022011  -0.0001401336  -0.0002145926  -0.006227341  0.005073515  -0.007220887  0.004693473  
4188188188.19  0.0028798  0.002996132  -0.0002950012  0.0001453103  0.004944189  0.006702487  0.004729318  0.007652442  
4192192192.19  0.003379278  -0.00275698  9.522217e-05  0.0004062048  0.007208997  -0.004899197  0.008083374  -0.004869352  
4196196196.2  -0.002751954  -0.003849609  0.0003670078  -0.0002585111  -0.004883847  -0.007762294  -0.005020336  -0.008476946  
4200200200.2  -0.004194718  0.002692797  -0.0002553988  -0.0002925813  -0.00813979  0.00483066  -0.008730885  0.005106338  
4204204204.2  0.002566506  0.004493234  -0.00031922  0.0002430775  0.00462489  0.008550698  0.00502313  0.008916111  
4208208208.21  0.004793433  -0.002495126  7.543869e-05  0.0002528834  0.008854041  -0.004511626  0.009021739  -0.004961926  
4212212212.21  -0.002360392  -0.005192439  0.0004033741  -6.923005e-05  -0.004281166  -0.009398511  -0.004714425  -0.009319479  
4216216216.22  -0.005524709  0.002164244  -8.164532e-05  -0.0004520651  -0.009827704  0.004007189  -0.009661922  0.004560048  
4220220220.22  0.002189146  0.00593335  -0.000476296  0.0001239951  0.004031752  0.01029622  0.004568541  0.009877664  
4224224224.22  0.005971768  -0.002115417  -5.633245e-05  0.0005396928  0.01028454  -0.003949305  0.009833559  -0.004302717  
4228228228.23  -0.001891637  -0.006369534  0.0006738803  -9.479116e-05  -0.003648643  -0.01068622  -0.004151407  -0.01004096  
4232232232.23  -0.006649649  0.001893043  -0.0002247171  -0.0006155776  -0.01096939  0.003502442  -0.01010871  0.003883367  
4236236236.24  0.001793388  0.006801087  -0.0005551701  0.0001177702  0.003287984  0.01104996  0.003591631  0.01008381  
4240240240.24  0.00685773  -0.001563257  2.50413e-05  0.0006398995  0.01108547  -0.002858746  0.01013131  -0.003103454  
4244244244.24  -0.001440087  -0.007088083  0.0006484789  -7.46726e-05  -0.00264654  -0.01137298  -0.002781617  -0.01027122  
4248248248.25  -0.007289148  0.001279109  -0.0001362346  -0.0007020519  -0.01156904  0.002408479  -0.01038397  0.002475111  
4252252252.25  0.001249617  0.007432845  -0.0006953895  0.0001581166  0.002238963  0.01161784  0.002268181  0.0104569  
4256256256.26  0.007431286  -0.001151487  0.0001976457  0.0005880289  0.0115649  -0.001990797  0.01031798  -0.001955315  
4260260260.26  -0.00106091  -0.007430415  0.0005272175  -0.0001246274  -0.001736092  -0.0114482  -0.00158837  -0.01024457  
4264264264.26  -0.007397506  0.0009014541  -0.0001212303  -0.0005171071  -0.01136044  0.001454482  -0.01018252  0.001302643  
4268268268.27  0.00066897  0.0073934  -0.000474545  6.808758e-05  0.0010948  0.01128687  0.0009090263  0.01009088  
4272272272.27  0.007365039  -0.0005142909  9.874469e-07  0.0004369533  0.01111468  -0.0007944727  0.01000418  -0.0005791674  
4276276276.28  -0.0002485708  -0.00732154  0.0005544501  4.17467e-05  -0.0003774645  -0.01107323  -0.0001810488  -0.01000239  
4280280280.28  -0.007442393  0.000125535  -2.565697e-05  -0.0005037704  -0.01107413  0.0002430476  -0.00994836  6.185679e-05  
4284284284.28  0.0001076604  0.007262156  -0.0004755369  -0.000115288  2.859156e-05  0.01067955  -0.0001201861  0.009623921  
4288288288.29  0.007223571  3.084339e-05  -4.124072e-05  0.0005743955  0.01051995  0.0002190781  0.009500311  0.0004574682  
4292292292.29  0.000216165  -0.006992598  0.0005446298  8.473169e-06  0.0004941593  -0.01024601  0.0006448566  -0.009356218  
4296296296.3  -0.006794249  -0.0005084255  4.40898e-05  -0.000513293  -0.0099369  -0.0007262662  -0.009127879  -0.0007592265  
4300300300.3  -0.0006365156  0.006780187  -0.0005426686  1.559239e-05  -0.0009252629  0.009691222  -0.0008991156  0.008825365  
4304304304.3  0.006631863  0.000726358  -7.375899e-05  0.0004227106  0.009318775  0.001013517  0.008497801  0.0009212159  
4308308308.31  0.0009715933  -0.006453474  0.0004060114  0.0001131531  0.001192998  -0.008874591  0.0009421903  -0.007979389  
4312312312.31  -0.00632601  -0.001146888  0.00012089  -0.0004372132  -0.008507079  -0.001501322  -0.007629503  -0.001198573  
4316316316.32  -0.001381808  0.006250688  -0.0004923368  -0.0002194799  -0.001731856  0.008167887  -0.001331312  0.007139437  
4320320320.32  0.006193268  0.001575769  -6.572568e-05  0.0005209752  0.007900273  0.002002107  0.006969933  0.001472182  
4324324324.32  0.001621238  -0.006234612  0.0004212122  4.576829e-05  0.00208001  -0.007632074  0.001342654  -0.006590853  
4328328328.33  -0.006173299  -0.001628512  7.222874e-05  -0.000406751  -0.007448958  -0.002159729  -0.006217069  -0.001409766  
4332332332.33  -0.001548294  0.006125063  -0.0004332408  -9.213138e-05  -0.002136605  0.007230729  -0.001260734  0.005879517  
4336336336.34  0.006152709  0.001487693  -0.0001243478  0.0003734323  0.006964037  0.001978579  0.005400117  0.001088514  
4340340340.34  0.001421271  -0.006145936  0.0003552755  3.986516e-05  0.001830134  -0.00668134  0.0009253572  -0.004946664  
4344344344.34  -0.006070707  -0.00122722  9.710409e-05  -0.0003412249  -0.006502997  -0.001646189  -0.004476127  -0.0006820334  
4348348348.35  -0.0009357611  0.006062943  -0.0003075386  -7.141117e-05  -0.001279622  0.006260199  -0.0003285847  0.004054386  
4352352352.35  0.005870761  0.0005518495  -0.0001213854  0.0002829719  0.005867461  0.0008296647  0.003453623  6.222022e-05  
4356356356.36  0.0002798843  -0.005646628  0.0003235818  4.172897e-05  0.0004308614  -0.005490715  -0.0002263531  -0.002863394  
4360360360.36  -0.005453015  6.983779e-05  3.541289e-05  -0.0003253869  -0.005023029  3.441434e-05  -0.002222783  0.0004977674  
4364364364.36  0.0003594911  0.005252215  -0.0002554409  -1.701791e-05  0.0005028256  0.004642829  0.0008372601  0.001632658  
4368368368.37  0.005108781  -0.0007362293  5.232936e-05  0.0002376496  0.004165176  -0.001025539  0.001044157  -0.001106977  
4372372372.37  -0.001101783  -0.00489938  0.0002283984  -1.829421e-05  -0.00155229  -0.00375892  -0.00141884  -0.0005139218  
4376376376.38  -0.00471687  0.001480328  -7.137907e-05  -0.0002510192  -0.003257205  0.002088711  6.17831e-05  0.001665013  
4380380380.38  0.001943472  0.004462744  -0.0002584004  0.0001176754  0.002722804  0.002801571  0.002029881  -0.0005885856  
4384384384.38  0.004241344  -0.002460241  0.0002287746  0.0002082737  0.002267102  -0.00334413  -0.001061363  -0.002392044  
4388388388.39  -0.002954569  -0.003945439  0.0001941529  -0.0002343173  -0.003986242  -0.001785293  -0.002769652  0.00158282  
4392392392.39  -0.003578709  0.003517887  -0.0003324818  -0.0001415418  -0.001172043  0.004615222  0.002036019  0.003103369  
4396396396.4  0.003938814  0.003183904  3.672632e-05  0.0003436113  0.005220399  0.0005914815  0.003512692  -0.002510845  
4400400400.4  0.002790177  -0.004322608  0.0002902435  -4.944382e-05  -2.987563e-05  -0.005793695  -0.002912313  -0.003905304  
4404404404.4  -0.004688674  -0.002356627  4.977193e-05  -0.0002634242  -0.006268632  0.0006963016  -0.004303504  0.003409744  
4408408408.41  -0.002071881  0.005019939  -0.0003935908  -1.715856e-05  0.001232299  0.006641419  0.003734383  0.004650359  
4412412412.41  0.005296134  0.001784858  7.19491e-05  0.000417717  0.006963409  -0.001648346  0.004987384  -0.004112074  
4416416416.42  0.0015538  -0.005504175  0.0004672471  -7.93767e-05  -0.002010994  -0.007289893  -0.004335916  -0.005382395  
4420420420.42  -0.005817153  -0.001383917  -0.0001447995  -0.0004493351  -0.007698664  0.002332304  -0.005807423  0.004581596  
4424424424.42  -0.001235816  0.006043111  -0.0004086794  7.960091e-05  0.002555299  0.007941193  0.004775567  0.006072842  
4428428428.43  0.006396233  0.001221293  0.000179051  0.0005381076  0.008333362  -0.002581747  0.006578871  -0.004903426  
4432432432.43  0.001098119  -0.006671966  0.0005125977  -0.0002704502  -0.002684998  -0.008705481  -0.005070279  -0.007040911  
4436436436.44  -0.006857747  -0.001189656  -0.0001753927  -0.0003810284  -0.009045281  0.002698245  -0.007511757  0.005189466  
4440440440.44  -0.001376929  0.007249049  -0.0004711011  0.0001976612  0.002671228  0.009490326  0.00530612  0.007961319  
4444444444.44  0.007722601  0.001477412  4.393962e-05  0.0004254006  0.009880038  -0.002571108  0.008379251  -0.005404488  
4448448448.45  0.001605424  -0.008093641  0.000578752  -5.606221e-05  -0.002447437  -0.01034333  -0.005428075  -0.00885865  
4452452452.45  -0.008776511  -0.001840907  -0.00014879  -0.0006988973  -0.01082962  0.00223474  -0.00932717  0.005603667  
4456456456.46  -0.001772444  0.009355261  -0.0006097548  0.0001589638  0.002078882  0.01132654  0.005792335  0.009751124  
4460460460.46  0.009904935  0.001709164  0.0001418148  0.000699149  0.01178447  -0.00198739  0.009997305  -0.005831257  
4464464464.46  0.001721564  -0.01043282  0.0008341208  -0.0003093533  -0.001702252  -0.01223372  -0.00585255  -0.01028944  
4468468468.47  -0.01087636  -0.001518003  -0.0003896405  -0.0005874763  -0.01274226  0.001589014  -0.01060169  0.006028198  
4472472472.47  -0.001468285  0.01114775  -0.0004421091  0.0002153734  0.001356944  0.01310095  0.00602719  0.01071505  
4476476476.48  0.01158417  0.001444101  0.0001498423  0.0005382911  0.01355231  -0.001100329  0.01086593  -0.006004321  
4480480480.48  0.001413115  -0.01185115  0.0004969922  -8.970053e-05  -0.0008361397  -0.01394457  -0.005900139  -0.01091548  
4484484484.48  -0.01210456  -0.001372269  -0.0001003439  -0.0005309768  -0.01425008  0.0005255748  -0.01094419  0.00568988  
4488488488.49  -0.001592055  0.01212864  -0.0005771336  9.944201e-05  1.650323e-05  0.01464183  0.005426575  0.01109853  
4492492492.49  0.01252397  0.001729355  -5.525335e-05  0.0004535088  0.01510687  0.0003116616  0.01122528  -0.005321175  
4496496496.5  0.002177273  -0.0126611  0.0005992979  0.0002763282  0.001028736  -0.01545709  -0.004965947  -0.01122137  
4500500500.5  -0.01328289  -0.002446945  0.0002398146  -0.0007583676  -0.01636178  -0.001396894  -0.01152127  0.004810696  
4504504504.5  -0.002610671  0.01382789  -0.0009531718  -0.0002334224  -0.001640847  0.01705517  0.004699227  0.01154937  
4508508508.51  0.01458371  0.002412272  -4.162356e-05  0.0007405014  0.01796427  0.001561875  0.01173236  -0.004780244  
4512512512.51  0.002274633  -0.01481555  0.0008179576  0.0001694699  0.001354619  -0.01833965  -0.004663714  -0.01136897  
4516516516.52  -0.01527123  -0.002167335  0.0001065934  -0.0007724278  -0.01871632  -0.001202374  -0.01114508  0.004503397  
4520520520.52  -0.001828197  0.01545335  -0.000751183  -0.000301321  -0.001086907  0.01897226  0.004250542  0.01081736  
4524524524.52  0.01558917  0.001801344  -0.0003646051  0.0009532042  0.01908728  0.000935175  0.01048603  -0.003757288  
4528528528.53  0.001543934  -0.01580511  0.0008482976  0.0004231289  0.0007995645  -0.01927175  -0.003452132  -0.01027807  
4532532532.53  -0.01585533  -0.001336733  0.0005151186  -0.00109298  -0.01938737  -0.0006180883  -0.01001199  0.003038669  
4536536536.54  -0.0009744685  0.01604095  -0.001203345  -0.0002600347  -9.460885e-05  0.01954039  0.002714979  0.01003038  
4540540540.54  0.01594398  0.0004949073  -0.0003465735  0.001151623  0.01923428  -0.0004041204  0.009601572  -0.002451462  
4544544544.54  0.0001153188  -0.01522689  0.001375204  0.0004892392  -0.0007112322  -0.01845982  -0.001922113  -0.009304353  
4548548548.55  -0.01492431  -0.0002945386  0.0002107081  -0.001538043  -0.01796856  0.0006809101  -0.0090703  0.001457745  
4552552552.55  -0.0003540942  0.01479684  -0.001563188  -0.0001186998  0.0006218487  0.01762787  0.001165202  0.009086262  
4556556556.56  0.01482008  0.0003701842  0.0001471562  0.001627727  0.0175107  -0.0008020754  0.00907066  -0.0009936654  
4560560560.56  5.903975e-05  -0.01486677  0.001478131  -0.00045286  -0.001148222  -0.01707627  -0.0009276989  -0.008965574  
4564564564.56  -0.01464994  0.0007231476  -0.0006164924  -0.001134036  -0.01666808  0.001847334  -0.008849422  0.001135457  
4568568568.57  0.001240209  0.0138085  -0.0008687571  0.0005105102  0.002499051  0.01545752  0.001435767  0.008313918  
4572572572.57  0.0128053  -0.001367927  0.0004015509  0.0008880672  0.01410254  -0.002610248  0.007499363  -0.001399057  
4576576576.58  -0.001149929  -0.01200267  0.0007922389  -0.0004742973  -0.002283548  -0.01289414  -0.001173657  -0.006838974  
4580580580.58  -0.01128667  0.0008783913  -0.000471192  -0.0006782298  -0.01197458  0.001894969  -0.006357411  0.001008558  
4584584584.58  0.0006313214  0.01078121  -0.0005048609  0.0004426769  0.001643153  0.01121261  0.0009670692  0.00589348  
4588588588.59  0.010271  -0.0003494862  0.000297878  0.0003842588  0.01046664  -0.001367184  0.005343607  -0.0008932828  
4592592592.59  1.164662e-05  -0.009889643  0.0003005888  -0.0002391659  -0.001114204  -0.009781685  -0.0007994188  -0.004868115  
4596596596.6  -0.009505584  -0.0001470199  -0.0001509967  -0.0002590244  -0.009115671  0.000896367  -0.004379657  0.0008280727  
4600600600.6  -0.0005922425  0.009213979  -0.000356363  9.17517e-05  0.0006106014  0.008491868  0.00076406  0.00386052  
4604604604.6  0.00905703  0.0008075447  7.955567e-05  0.0003065652  0.007923173  -0.0004542593  0.003202646  -0.0009248919  
4608608608.61  0.001120189  -0.008976365  0.0003538089  -8.003839e-05  -3.292601e-05  -0.007567526  -0.0006491129  -0.002775676  
4612612612.61  -0.009147732  -0.001134608  -0.000108501  -0.0003310562  -0.007510299  -5.869503e-05  -0.002457269  0.0007242306  
4616616616.62  -0.001174439  0.00915054  -0.000258367  0.0001094401  0.0001585514  0.007127657  0.0009471305  0.002117004  
4620620620.62  0.009286956  0.001002896  8.309699e-05  0.0002314014  0.006826771  -0.0003269123  0.001646535  -0.001187221  
4624624624.62  0.00073114  -0.009382204  0.0001450059  -0.0001282855  -0.0004900402  -0.006530953  -0.001616878  -0.001158272  
4628628628.63  -0.009477124  -0.0003561657  -1.440344e-05  -0.0001059013  -0.00629366  0.0006887158  -0.0004616517  0.001822166  
4632632632.63  9.208678e-05  0.009454779  -0.0002176772  6.109856e-06  0.0009961486  0.006168657  0.001944682  -8.226115e-05  
