# Hz    S   RI   R   50.0
4000000000.0  0.001825462  0.001434385  -0.0002756978  5.792676e-05  0.001558691  0.008715923  0.0006372754  0.01092092  
4004004004.0  0.001514256  -0.00172787  6.263143e-06  0.0002954586  0.008662478  -0.001362718  0.0108255  -0.0004672869  
4008008008.01  -0.001448691  -0.001529968  0.0002742066  2.866052e-05  -0.001165832  -0.008597132  -0.0002900904  -0.01068695  
4012012012.01  -0.00164047  0.001228964  6.683614e-05  -0.0003017581  -0.008521938  0.001050095  -0.01053488  0.0001809399  
4016016016.02  0.001100049  0.001786109  -0.0002563094  -9.742146e-05  0.0009293391  0.008274036  6.040572e-05  0.01027495  
4020020020.02  0.001668939  -0.0008994114  -5.317805e-05  0.0003820585  0.007996239  -0.0007353823  0.009949346  0.0001611247  
4024024024.02  -0.0007573273  -0.001686985  0.0003734411  0.0001114977  -0.0005833462  -0.007694435  0.0002842213  -0.00969232  
4028028028.03  -0.001737568  0.0006305144  4.770575e-05  -0.0003440467  -0.007456958  0.0004575708  -0.009370874  -0.0003569004  
4032032032.03  0.0005051668  0.001661916  -0.0003117959  -6.553614e-05  0.0003521959  0.007011331  -0.000503464  0.008903597  
4036036036.04  0.00159459  -0.0003834016  -4.35029e-05  0.0002912118  0.006594654  -0.0001119493  0.00854672  0.0006957083  
4040040040.04  -0.0002335359  -0.001501441  0.0003238189  7.207775e-05  0.0001640628  -0.00622952  0.0008311428  -0.008151814  
4044044044.04  -0.001413476  0.0001618339  6.059638e-05  -0.0002495226  -0.005924116  -0.0003437063  -0.00778735  -0.000857872  
4048048048.05  7.831114e-05  0.001369915  -0.0002206167  -2.67182e-05  -0.0004600195  0.005570473  -0.0009127859  0.007400307  
4052052052.05  0.001261584  3.635365e-05  -7.298432e-05  0.0001266088  0.00516204  0.0005550676  0.006961029  0.0009135651  
4056056056.06  9.633678e-05  -0.00117046  0.0001755794  0.0001165486  0.000637726  -0.00476293  0.0009066287  -0.006440691  
4060060060.06  -0.001036536  -8.720579e-05  0.0001316735  -0.0001582805  -0.004387459  -0.0006904764  -0.005921635  -0.0008497879  
4064064064.06  -6.834501e-05  0.0008446206  -0.0002406402  -6.248827e-05  -0.0006147544  0.003897354  -0.0008309978  0.005408053  
4068068068.07  0.0007164754  9.277979e-05  1.384822e-05  0.0001478735  0.003507139  0.0005756  0.004877584  0.000695742  
4072072072.07  2.032131e-05  -0.0004885697  4.219464e-05  7.036288e-05  0.0004988703  -0.002992243  0.0005513317  -0.004228513  
4076076076.08  -0.000279199  -6.797899e-06  5.669205e-05  -2.573965e-05  -0.002442683  -0.0004428388  -0.003586416  -0.0005361276  
4080080080.08  2.998993e-06  0.0001454966  -1.62795e-05  -0.0001411109  -0.0003726611  0.002011295  -0.0004616134  0.002952892  
4084084084.08  -7.550282e-05  -5.827512e-05  -9.588294e-05  3.816892e-05  0.001511371  0.0002975969  0.002422173  0.0004643947  
4088088088.09  -0.0001049184  0.0002988263  2.795914e-05  7.119879e-05  0.0001986045  -0.0009786589  0.0002892324  -0.001937905  
4092092092.09  0.0004999274  0.0001903162  0.0001007438  1.785292e-05  -0.0005262324  1.009877e-06  -0.001397528  -0.0001317941  
4096096096.1  0.0003138788  -0.0006747213  1.674183e-05  -4.531174e-05  0.0001918189  0.0001250004  4.776825e-05  0.0008627797  
4100100100.1  -0.0008985887  -0.0004299576  -1.541586e-06  -3.847741e-05  -0.0004105364  -0.0004497059  0.0003505733  -0.0002289954  
4104104104.1  -0.0005198178  0.001042966  -0.0001043747  3.082976e-06  -0.0006782322  0.0008662734  -0.0004936247  0.000180004  
4108108108.11  0.001326622  0.0007900395  -3.290207e-05  0.0002606541  0.001324836  0.0009753549  0.0006641811  0.0008381049  
4112112112.11  0.000893915  -0.001511484  0.0001780358  -4.646614e-05  0.001292523  -0.001777005  0.001126872  -0.00116969  
4116116116.12  -0.001777293  -0.001066558  -5.893604e-05  -0.0001879781  -0.002290747  -0.001716008  -0.001776266  -0.001516034  
4120120120.12  -0.001161084  0.001976378  -0.000175659  3.146504e-05  -0.001985874  0.002781674  -0.001764154  0.002305423  
4124124124.12  0.00214723  0.001461775  5.314863e-05  0.0001982998  0.003309747  0.002349087  0.002831835  0.00212885  
4128128128.13  0.001502298  -0.002317902  0.000108609  4.448653e-05  0.002499836  -0.003672115  0.00237453  -0.003279787  
4132132132.13  -0.002396377  -0.001727688  7.246761e-05  -0.0002130407  -0.003937889  -0.002844148  -0.003630477  -0.002776346  
4136136136.14  -0.001920464  0.002572486  -0.0002367105  -3.036392e-05  -0.003295335  0.004279032  -0.003109199  0.004161335  
4140140140.14  0.002550715  0.002144059  -0.0001157018  0.000231313  0.004625248  0.003684771  0.004514939  0.003467476  
4144144144.14  0.00247857  -0.002680781  0.0002360018  7.762535e-05  0.00408554  -0.004920756  0.003770293  -0.004880934  
4148148148.15  -0.00278649  -0.002647954  0.0001145956  -0.0001508424  -0.005118872  -0.004365996  -0.005179333  -0.004055948  
4152152152.15  -0.003043631  0.002662855  -0.000196264  -0.0002252146  -0.004918046  0.005138943  -0.004579248  0.005291735  
4156156156.16  0.002771651  0.003471889  -0.0002157771  0.0002555717  0.005354472  0.005452076  0.005595573  0.005077606  
4160160160.16  0.003826592  -0.002826353  0.000271845  0.0002952278  0.006045891  -0.005567566  0.005584661  -0.005876875  
4164164164.16  -0.002879293  -0.004215377  0.0002736163  -0.0002741189  -0.005716885  -0.006569426  -0.006214992  -0.006039944  
4168168168.17  -0.004610221  0.002985458  -0.0002325086  -0.0002739717  -0.007089787  0.00597277  -0.006365451  0.006462483  
4172172172.17  0.003015968  0.004988716  -0.0003420085  0.0002995644  0.006142073  0.007557869  0.006729007  0.006724622  
4176176176.18  0.005306791  -0.003074007  0.0002662315  0.0003766284  0.007938329  -0.006206872  0.006971819  -0.006865691  
4180180180.18  -0.003204323  -0.005743929  0.0002873121  -0.0003242262  -0.006193996  -0.008541124  -0.006938309  -0.007394555  
4184184184.18  -0.006153198  0.003152888  -0.0002331966  -0.0004120522  -0.009129603  0.006206946  -0.007786859  0.007054383  
4188188188.19  0.003205628  0.006537593  -0.0004737055  0.0002983841  0.006338349  0.009730148  0.007191102  0.008200236  
4192192192.19  0.006903079  -0.003330556  0.0002786432  0.0004866877  0.01017332  -0.006492477  0.00846615  -0.007336339  
4196196196.2  -0.003500056  -0.007307746  0.0004942647  -0.0003424095  -0.006705631  -0.01067411  -0.007542529  -0.008660995  
4200200200.2  -0.007533201  0.003596312  -0.0003436673  -0.0005143354  -0.01090545  0.006850543  -0.008648356  0.007528438  
4204204204.2  0.003638322  0.007759616  -0.0005341521  0.0003642339  0.006782465  0.01119148  0.007318397  0.008763245  
4208208208.21  0.007988187  -0.003688619  0.0002685763  0.0005317386  0.01147845  -0.006645118  0.008908891  -0.007062878  
4212212212.21  -0.003779558  -0.00827826  0.000503851  -0.0002512226  -0.006693279  -0.01186428  -0.006855835  -0.009120106  
4216216216.22  -0.008482429  0.003729385  -0.000286139  -0.0006770032  -0.01217429  0.006596324  -0.009341897  0.006553488  
4220220220.22  0.003843783  0.008685795  -0.0006144313  0.0003562105  0.006737294  0.01240326  0.006450769  0.009585899  
4224224224.22  0.008639667  -0.0038754  0.0002391101  0.0007175648  0.01216954  -0.006653478  0.009497375  -0.006104907  
4228228228.23  -0.003861556  -0.008783876  0.0006900007  -0.0004142706  -0.006448318  -0.01235694  -0.005893406  -0.009669174  
4232232232.23  -0.008839654  0.003832158  -0.0004146482  -0.0006481441  -0.012357  0.006275202  -0.009730326  0.005533443  
4236236236.24  0.003725472  0.008812319  -0.0005515656  0.0003835177  0.00603977  0.01224787  0.005133871  0.009784285  
4240240240.24  0.008804031  -0.003481516  0.0003710134  0.0006353913  0.01228914  -0.005682942  0.009862133  -0.004731793  
4244244244.24  -0.003398605  -0.008837192  0.0006507177  -0.0003553325  -0.0053189  -0.01234766  -0.00438973  -0.009971278  
4248248248.25  -0.008856379  0.003274098  -0.0004084769  -0.000590996  -0.01236758  0.005166505  -0.01005964  0.004115162  
4252252252.25  0.003125962  0.008822923  -0.0005498851  0.0003463187  0.0048628  0.01218257  0.00383053  0.00995619  
4256256256.26  0.008690001  -0.002968252  0.0003032853  0.0004999191  0.01198472  -0.004539016  0.009896304  -0.003527835  
4260260260.26  -0.002814716  -0.008636211  0.000457344  -0.0002579972  -0.004138408  -0.01180977  -0.003107479  -0.009794442  
4264264264.26  -0.008585278  0.002521951  -0.0002050953  -0.0005128379  -0.01168909  0.003746434  -0.009683669  0.002681605  
4268268268.27  0.002243581  0.008532906  -0.0005155768  0.0002487907  0.003291285  0.01147882  0.002245581  0.009693279  
4272272272.27  0.008470691  -0.002093141  0.0001269798  0.0004625219  0.01139767  -0.002959515  0.009650119  -0.001977502  
4276276276.28  -0.00179724  -0.008367143  0.0005018396  -0.0001608401  -0.002599374  -0.0112376  -0.001696801  -0.009619638  
4280280280.28  -0.008403518  0.001662886  -0.000172784  -0.0004681787  -0.01109215  0.002326218  -0.009476269  0.001527663  
4284284284.28  0.001572851  0.008287551  -0.0004457027  0.0001177275  0.002054177  0.0107974  0.001279432  0.009207545  
4288288288.29  0.008168438  -0.0013609  5.973143e-05  0.0004130046  0.01055218  -0.00173236  0.008980305  -0.001115275  
4292292292.29  -0.001228902  -0.008024395  0.0004063646  -0.0001110851  -0.001431216  -0.01022549  -0.0008417501  -0.008724275  
4296296296.3  -0.00790298  0.0009900064  -5.09329e-05  -0.0003834534  -0.009949821  0.001083335  -0.008480129  0.0006911121  
4300300300.3  0.0008447131  0.007753139  -0.0004624177  4.264258e-05  0.0009063623  0.009654611  0.0004801769  0.008135151  
4304304304.3  0.007631415  -0.0007491061  -2.600054e-05  0.0003685627  0.009279985  -0.0007505122  0.007704502  -0.0004290489  
4308308308.31  -0.000612253  -0.007470754  0.0004087206  4.681699e-05  -0.0004799578  -0.008848893  -0.0002654376  -0.00724681  
4312312312.31  -0.007322821  0.0005406244  1.158655e-05  -0.000403331  -0.008459218  0.0002323583  -0.006851411  0.0001178821  
4316316316.32  0.0003367499  0.007111776  -0.0003892698  -4.090612e-05  -5.202691e-05  0.008093053  -1.50664e-05  0.006399714  
4320320320.32  0.007026718  -0.0001365177  1.287711e-05  0.0003983704  0.00788713  0.0003275478  0.006113911  0.0001460741  
4324324324.32  -0.0001473434  -0.007089933  0.0003054237  -4.706426e-06  0.0003811554  -0.007655754  8.41726e-05  -0.005666478  
4328328328.33  -0.006992759  0.0002183629  1.994993e-05  -0.0002945364  -0.007358315  -0.0004249366  -0.005260004  -0.0001602247  
4332332332.33  0.0002882466  0.006851129  -0.0003488517  -8.655438e-05  -0.0003818615  0.007098598  -0.0001168573  0.00476343  
4336336336.34  0.006768086  -0.0004562601  -3.185655e-05  0.0002622144  0.006884659  0.0001915857  0.004409995  -1.433045e-05  
4340340340.34  -0.0005558071  -0.006592425  0.0002736372  0.000108827  3.861066e-06  -0.00650718  -0.0002091829  -0.003872995  
4344344344.34  -0.006473477  0.0007331832  8.975335e-05  -0.0003084243  -0.006260382  0.0002371925  -0.003354935  0.0002996448  
4348348348.35  0.001095118  0.006365908  -0.0003501916  -2.735783e-05  0.0006733784  0.005923541  0.0005992536  0.002809246  
4352352352.35  0.006112906  -0.00151707  1.597987e-05  0.0003641746  0.005489716  -0.001118339  0.00221752  -0.0007769583  
4356356356.36  -0.00177548  -0.005744254  0.0002808834  -7.769715e-05  -0.001557958  -0.004928302  -0.001026805  -0.001630537  
4360360360.36  -0.005365205  0.002065892  -7.010204e-05  -0.0002517698  -0.004310515  0.001964218  -0.0009387814  0.001193633  
4364364364.36  0.002360536  0.005107392  -0.0002610132  0.0001655649  0.002397931  0.003797027  0.001340923  0.0004105473  
4368368368.37  0.004787787  -0.002621688  0.0001925386  0.0001421011  0.003325954  -0.002848776  -0.0001269944  -0.001616862  
4372372372.37  -0.002977644  -0.004537247  0.000138266  -0.0001912989  -0.003327933  -0.002725495  -0.001905288  0.0006929344  
4376376376.38  -0.004197163  0.003368611  -0.0001537303  -8.962334e-05  -0.002167159  0.003798756  0.001224093  0.002141348  
4380380380.38  0.003795537  0.003829913  -0.0001761882  0.0001765922  0.004429849  0.001601687  0.002450085  -0.001747329  
4384384384.38  0.003459964  -0.004230154  0.0003158596  0.000112769  0.0008870539  -0.004970171  -0.002218899  -0.002730087  
4388388388.39  -0.004533722  -0.003053914  -3.528102e-05  -0.0003538214  -0.005395232  -0.0002609793  -0.003122143  0.00269617  
4392392392.39  -0.002686529  0.004941406  -0.0003484303  1.7227e-05  0.0003463179  0.00583338  0.003186655  0.003427452  
4396396396.4  0.005253027  0.00222109  0.0001213534  0.0003463629  0.006268888  -0.0009757511  0.003802521  -0.003705065  
4400400400.4  0.001771555  -0.005547084  0.0002904487  -6.518968e-05  -0.001534158  -0.006628395  -0.004022156  -0.003992696  
4404404404.4  -0.005777624  -0.001420019  -6.526396e-05  -0.0003393906  -0.006963436  0.002232217  -0.004358392  0.0044713  
4408408408.41  -0.001046379  0.00601475  -0.0003975271  0.0001465611  0.002711315  0.007214681  0.004797611  0.004659152  
4412412412.41  0.006158536  0.0007651708  0.000196294  0.0003560877  0.007409309  -0.003071312  0.004972775  -0.005018082  
4416416416.42  0.0006219075  -0.006248231  0.0004604191  -0.0002324936  -0.003304849  -0.007575392  -0.005247355  -0.005338859  
4420420420.42  -0.006489269  -0.000497143  -0.0002627532  -0.0004135594  -0.007863624  0.003507514  -0.005725542  0.005583327  
4424424424.42  -0.000446277  0.006697837  -0.0003944205  0.0002187206  0.003627062  0.008069756  0.0056852  0.005996589  
4428428428.43  0.006951809  0.0005128938  0.0002192907  0.0004399882  0.00842985  -0.003588738  0.006425593  -0.005738978  
4432432432.43  0.0004169504  -0.007213214  0.0004723933  -0.0003444229  -0.003562104  -0.008835847  -0.005785578  -0.006892855  
4436436436.44  -0.007485322  -0.0005513858  -0.0003140687  -0.0003951938  -0.009207097  0.003553123  -0.007360362  0.00588566  
4440440440.44  -0.0007322791  0.007852603  -0.0004624469  0.0002570203  0.003427602  0.009570916  0.005962905  0.007880956  
4444444444.44  0.008403176  0.0007891348  0.0002028709  0.0004059179  0.01010562  -0.003307285  0.00820664  -0.006056108  
4448448448.45  0.0008989054  -0.008750637  0.0005386423  -0.0001381793  -0.003166758  -0.01051788  -0.006133516  -0.008703934  
4452452452.45  -0.009437335  -0.001026455  -0.0002495876  -0.0006239374  -0.01103665  0.002952507  -0.0091978  0.006234684  
4456456456.46  -0.0008766909  0.009905573  -0.0005118462  0.0001945845  0.002855787  0.01147601  0.006395979  0.00948483  
4460460460.46  0.01035985  0.0008799504  0.0002012357  0.0006018193  0.01194345  -0.002659108  0.009736235  -0.00641933  
4464464464.46  0.0008233843  -0.01092681  0.000780635  -0.0002467225  -0.00237544  -0.01247674  -0.006374286  -0.009950304  
4468468468.47  -0.01121129  -0.0006674276  -0.0003155168  -0.0005045662  -0.01292369  0.002243895  -0.01032062  0.006483996  
4472472472.47  -0.0006140759  0.0114154  -0.0004597232  0.0001642911  0.002042505  0.01326321  0.006525053  0.01037451  
4476476476.48  0.01179042  0.0006244012  9.070921e-05  0.0006174198  0.0137607  -0.001815833  0.01053211  -0.006391996  
4480480480.48  0.0005559526  -0.0120308  0.000662073  -0.0001551284  -0.001559567  -0.01407546  -0.006293298  -0.0106872  
4484484484.48  -0.01216524  -0.0005601029  -0.0001057005  -0.0004391664  -0.01431656  0.001227173  -0.01061559  0.006082087  
4488488488.49  -0.0007991512  0.01219731  -0.0007948012  0.0001251804  0.0007529251  0.01471905  0.005721901  0.01074166  
4492492492.49  0.01249499  0.001073376  4.952009e-05  0.0005296232  0.01514029  -0.0003484938  0.01088833  -0.005519151  
4496496496.5  0.001487934  -0.01276747  0.0007073583  0.0001626299  0.0003359453  -0.01560084  -0.005177004  -0.01105448  
4500500500.5  -0.01327705  -0.001699911  0.0001890941  -0.0008664073  -0.01636127  -0.0006342809  -0.0111719  0.00497456  
4504504504.5  -0.001995226  0.01395501  -0.0009466371  -3.261648e-05  -0.0009819347  0.01714105  0.004770767  0.01141386  
4508508508.51  0.01455874  0.001593171  3.362853e-05  0.0006628563  0.01791485  0.0006801359  0.01144518  -0.005004987  
4512512512.51  0.001530953  -0.0145765  0.0008448752  0.0001169716  0.0005655913  -0.01810203  -0.004766488  -0.01115221  
4516516516.52  -0.01508263  -0.001533275  0.0001089595  -0.0008174853  -0.01852279  -0.0005412563  -0.01086541  0.004555841  
4520520520.52  -0.001325348  0.01526752  -0.0008215924  -6.752412e-05  -0.0003789863  0.01866733  0.004223523  0.01068285  
4524524524.52  0.01541879  0.001074812  -0.0001360572  0.0009533059  0.018782  0.0002810522  0.01041969  -0.00375802  
4528528528.53  0.0007960615  -0.01548846  0.0008322342  0.000183494  0.0001578655  -0.01885507  -0.003379343  -0.01021146  
4532532532.53  -0.01546214  -0.0007754666  0.0002695023  -0.001065936  -0.01897995  -6.284565e-05  -0.01015744  0.002871481  
4536536536.54  -0.000333385  0.01564582  -0.001017952  4.62055e-05  0.0004833805  0.01914109  0.00278574  0.01010258  
4540540540.54  0.01546818  -1.941857e-05  -0.0001167782  0.0009564733  0.01874754  -0.0009111407  0.009687946  -0.002628158  
4544544544.54  -0.00033145  -0.01476074  0.001057832  0.0002714845  -0.001197799  -0.01796346  -0.002098483  -0.009220125  
4548548548.55  -0.01444268  0.0001999295  0.0001700702  -0.001209505  -0.01747577  0.0009790105  -0.009021232  0.001541727  
4552552552.55  0.0002167607  0.01420166  -0.001142989  -1.706666e-05  0.0009612849  0.01714608  0.001276836  0.009148682  
4556556556.56  0.0140053  4.015858e-05  -9.355991e-05  0.001244925  0.01689208  -0.001116741  0.008949373  -0.001202388  
4560560560.56  -7.663742e-05  -0.01401357  0.001350683  -0.0001533704  -0.001310763  -0.0163851  -0.0009464117  -0.008645759  
4564564564.56  -0.01415271  0.000716842  -0.0004689503  -0.001063032  -0.01616504  0.001850276  -0.008712411  0.001020445  
4568568568.57  0.001273052  0.01330252  -0.0008429312  0.0004810126  0.002418794  0.01493034  0.001315537  0.008197262  
4572572572.57  0.0123364  -0.001388161  0.0003157198  0.0007467949  0.01371242  -0.00247985  0.007432486  -0.001300825  
4576576576.58  -0.001156129  -0.01140252  0.0006774141  -0.0002712646  -0.002153937  -0.01241297  -0.001087336  -0.006722382  
4580580580.58  -0.01078697  0.000806166  -0.0003471008  -0.0006006061  -0.01165431  0.001628237  -0.00634446  0.0007658723  
4584584584.58  0.0005252001  0.01039426  -0.0004509272  0.0003700567  0.001452541  0.01105904  0.0007528203  0.00604736  
4588588588.59  0.009883855  -0.0002901654  0.000260414  0.000380332  0.01018159  -0.00121477  0.005375021  -0.0007383439  
4592592592.59  3.056484e-05  -0.009556205  0.0003577747  -0.0002387129  -0.0009247154  -0.009605783  -0.0005572872  -0.004891418  
4596596596.6  -0.00919176  -0.0002108986  -0.0001047848  -0.0002790031  -0.009027901  0.0007380146  -0.004489449  0.0004893977  
4600600600.6  -0.0004729986  0.008861879  -0.0002989418  0.0001510532  0.0005621208  0.008381479  0.0006194752  0.0041083  
4604604604.6  0.008595192  0.0007852777  6.978761e-05  0.0002443621  0.00769955  -0.0003280657  0.003393934  -0.0007142617  
4608608608.61  0.001117722  -0.00852192  0.000332785  -7.494911e-05  9.022719e-05  -0.007395368  -0.0003358139  -0.002992942  
4612612612.61  -0.008629668  -0.001108231  -0.0001491645  -0.0002615417  -0.007315368  -4.540347e-05  -0.002769597  0.0005267851  
4616616616.62  -0.001116815  0.008572153  -0.0002177445  0.0001420623  4.805984e-05  0.006935504  0.0007878828  0.002429632  
4620620620.62  0.008624293  0.001073342  5.728371e-05  0.0001623693  0.006570331  -0.0001809617  0.001915741  -0.0009896288  
4624624624.62  0.0007922203  -0.008619894  8.290396e-05  -0.0001178258  -0.0003698521  -0.00618962  -0.001376257  -0.001408474  
4628628628.63  -0.008712558  -0.0005375404  4.519187e-06  -5.36975e-05  -0.006007975  0.0004966893  -0.0009045081  0.00158247  
4632632632.63  -0.0001448556  0.008664195  -6.92541e-05  2.126174e-05  0.000710443  0.005896705  0.001687506  0.0004560045  
