# Hz    S   RI   R   50.0
4000000000.0  -0.0185324  -0.0028924  -0.0008007516  6.938422e-05  0.007505315  0.01619085  0.007676611  0.02516424  
4004004004.0  0.003493282  0.02602583  -1.153515e-05  0.0006982649  0.01209982  -0.003732923  0.02497908  -0.007846482  
4008008008.01  0.02629569  -0.01245336  0.0007699017  0.0001513075  0.001591019  -0.01173657  -0.008182336  -0.02479568  
4012012012.01  -0.01776354  -0.02229442  0.0001654665  -0.0007914932  -0.01401156  -0.004925974  -0.02467385  0.008536521  
4016016016.02  -0.01826214  0.01919405  -0.0006995755  -0.0001902112  -0.006129106  0.01617779  0.008897003  0.02435135  
4020020020.02  0.01915757  0.01588866  -0.0002734856  0.0007649251  0.01762624  0.006687874  0.02397882  -0.009345012  
4024024024.02  0.01460276  -0.01894836  0.0007898296  0.0003687134  0.007230209  -0.01858266  -0.009841936  -0.02364796  
4028028028.03  -0.01906925  -0.01376686  0.000390135  -0.000932754  -0.01993456  -0.007569202  -0.02335475  0.01051936  
4032032032.03  -0.01288005  0.01887319  -0.000849359  -0.0002582147  -0.007330415  0.02081073  0.01145667  0.02281335  
4036036036.04  0.01882323  0.01321422  -0.000385482  0.0008521012  0.02116204  0.007912028  0.02195714  -0.01226722  
4040040040.04  0.01337589  -0.01920439  0.001008426  0.0004340063  0.00868792  -0.02228869  -0.01313971  -0.02114147  
4044044044.04  -0.02020249  -0.01343232  0.0003923852  -0.00102885  -0.02410143  -0.008818766  -0.0198922  0.01430947  
4048048048.05  -0.01341367  0.02163292  -0.001086639  -0.0002967143  -0.008560834  0.02618921  0.01522461  0.01842827  
4052052052.05  0.0234731  0.01311745  -0.0002330878  0.001130403  0.02866761  0.007813163  0.01659949  -0.01603351  
4056056056.06  0.01173888  -0.02579323  0.001128241  0.0002367804  0.005645643  -0.03140035  -0.01654777  -0.01447992  
4060060060.06  -0.02799484  -0.009374153  0.0002209399  -0.001061076  -0.03370757  -0.002113331  -0.01227528  0.01653747  
4064064064.06  -0.005686688  0.02918303  -0.001227404  -0.0002553852  0.002799701  0.03439352  0.01600953  0.01026252  
4068068068.07  0.02892062  0.001752588  -8.788912e-05  0.001235787  0.03311776  -0.007743596  0.008704629  -0.01534066  
4072072072.07  -0.00153581  -0.02731319  0.001203342  0.000207351  -0.01154987  -0.03031609  -0.01457718  -0.007346956  
4076076076.08  -0.02510361  0.004193292  0.0001284582  -0.00139937  -0.0268657  0.01434169  -0.006426107  0.01388257  
4080080080.08  0.005708586  0.02239284  -0.001466344  -0.0001006174  0.01578827  0.0232202  0.0132658  0.005653067  
4084084084.08  0.02013248  -0.00652505  0.0001059508  0.001951038  0.02007898  -0.01629697  0.005139229  -0.01248736  
4088088088.09  -0.006835429  -0.01828034  0.002090804  -0.000883936  -0.01657265  -0.01775574  -0.01225838  -0.005300693  
4092092092.09  -0.01668036  0.006941643  -0.001597266  -0.001510086  -0.01574283  0.01687806  -0.005369371  0.01273509  
4096096096.1  0.007167475  0.01535649  -0.0007807619  0.001517705  0.01711051  0.01381816  0.01362569  0.00494624  
4100100100.1  0.01413614  -0.007312422  0.001355101  0.0004484523  0.01205744  -0.01750982  0.00430572  -0.01442396  
4104104104.1  -0.007427665  -0.01293641  0.0003088973  -0.001179529  -0.0179087  -0.01027196  -0.0152703  -0.003480651  
4108108108.11  -0.0118191  0.007599927  -0.001144861  -3.485535e-05  -0.008576598  0.01819969  -0.002504657  0.01611461  
4112112112.11  0.007562243  0.01060983  -3.366503e-05  0.001008812  0.01856596  0.006747867  0.01696014  0.001361093  
4116116116.12  0.00927496  -0.007381355  0.0007414219  -7.702193e-05  0.004668037  -0.01880151  -8.916246e-05  -0.01779669  
4120120120.12  -0.006777802  -0.008163184  -1.27724e-05  -0.0007355863  -0.01857823  -0.002710693  -0.01825825  0.001663596  
4124124124.12  -0.00735409  0.006049728  -0.0007465136  1.549485e-06  -0.0008929148  0.01812  0.003058322  0.01841968  
4128128128.13  0.004962936  0.006859247  3.448152e-05  0.0008817404  0.01758649  -0.0006537307  0.01850859  -0.004323317  
4132132132.13  0.006545828  -0.003853797  0.0007304763  -0.0001511416  -0.002198221  -0.0171052  -0.005467946  -0.01869316  
4136136136.14  -0.00207571  -0.006975918  -0.0001375649  -0.0006685855  -0.01591476  0.004019199  -0.01865147  0.006755425  
4140140140.14  -0.008933377  0.0004508602  -0.0007255185  0.0001762442  0.005279543  0.01393081  0.007644512  0.01845745  
4144144144.14  0.0001142641  0.01235561  0.0002146844  0.0005701707  0.01117671  -0.005352066  0.01821865  -0.008434126  
4148148148.15  0.01629019  -0.002524004  0.0005750428  -0.0001130856  -0.003062214  -0.008564325  -0.008745911  -0.01805694  
4152152152.15  -0.007133288  -0.01737838  -0.0001767207  -0.0005914301  -0.008684437  -0.0003016386  -0.01828991  0.008929417  
4156156156.16  -0.01593547  0.0105768  -0.0005742469  0.0001765028  -0.002389188  0.01064123  0.009228917  0.01876848  
4160160160.16  0.01228233  0.01422345  9.861543e-05  0.0005667687  0.01255993  0.003259442  0.01934709  -0.00972591  
4164164164.16  0.01284312  -0.01330233  0.0006073  -8.397378e-05  0.003605975  -0.0142529  -0.0104328  -0.01997843  
4168168168.17  -0.01394549  -0.01176667  -3.637594e-05  -0.0005839508  -0.01572496  -0.003727716  -0.0204551  0.01112519  
4172172172.17  -0.01114713  0.0144235  -0.0006305673  5.58755e-05  -0.003848121  0.0171051  0.01185776  0.02089578  
4176176176.18  0.01469413  0.01080464  -6.358353e-05  0.0006582202  0.01815468  0.004085849  0.02125408  -0.01255689  
4180180180.18  0.01089393  -0.01531644  0.0005875304  2.727026e-05  0.004535036  -0.01960958  -0.01338019  -0.02181129  
4184184184.18  -0.01617982  -0.01113182  0.000144294  -0.0006571023  -0.02137283  -0.004960527  -0.0222073  0.01443508  
4188188188.19  -0.01141561  0.01733218  -0.0007932782  -0.0002415999  -0.005322639  0.02334  0.01568833  0.02234287  
4192192192.19  0.01891244  0.01163573  -0.0002659953  0.0008802055  0.02578632  0.005458207  0.02212254  -0.01707138  
4196196196.2  0.01149181  -0.02092265  0.0009041844  0.0002431203  0.004976805  -0.02858904  -0.0184518  -0.02121078  
4200200200.2  -0.02302472  -0.01080276  0.0002911789  -0.0008422286  -0.03122657  -0.003677255  -0.01974102  0.01917048  
4204204204.2  -0.009703424  0.02512174  -0.001006419  -0.0003908944  -0.002041546  0.03379645  0.01916422  0.01845302  
4208208208.21  0.02693608  0.008121119  -0.0006024968  0.001066805  0.03601408  -0.0002420845  0.01720255  -0.01875468  
4212212212.21  0.005631964  -0.02870544  0.0012514  0.0008084449  -0.003592704  -0.03767108  -0.01815076  -0.01629571  
4216216216.22  -0.03005087  -0.003083529  0.0008268258  -0.001634858  -0.03883396  0.006983225  -0.01573938  0.01740885  
4220220220.22  0.0004473959  0.02972735  -0.001744164  -0.0009779903  0.01127543  0.03768113  0.01679603  0.01499503  
4224224224.22  0.02865599  -0.002454835  -0.001417369  0.002919005  0.03570751  -0.01322866  0.01416811  -0.01534248  
4228228228.23  -0.005005809  -0.02750497  0.003889241  0.0004436877  -0.01568533  -0.03362684  -0.01384424  -0.0142711  
4232232232.23  -0.02535902  0.006378833  -0.001092744  -0.004206219  -0.03082945  0.01666876  -0.01500126  0.01263087  
4236236236.24  0.006964472  0.02332566  -0.003020658  0.002419816  0.0166763  0.02845249  0.01237988  0.01582509  
4240240240.24  0.0218564  -0.006826312  0.002508114  0.002036778  0.02662392  -0.01603288  0.01615535  -0.01216251  
4244244244.24  -0.00673335  -0.0206583  0.001236625  -0.002222495  -0.01543325  -0.02526486  -0.01206569  -0.01613569  
4248248248.25  -0.01958316  0.006671275  -0.001836435  -0.0008344508  -0.02417431  0.01496258  -0.01612074  0.01183847  
4252252252.25  0.006376109  0.01849601  -0.0006776069  0.001475525  0.01439089  0.02301552  0.01158834  0.0159611  
4256256256.26  0.01743191  -0.005968006  0.001194058  0.0006081783  0.02193901  -0.01358389  0.01579764  -0.0111439  
4260260260.26  -0.005476411  -0.01661396  0.000545065  -0.0009818616  -0.01273876  -0.02114436  -0.0106074  -0.01576362  
4264264264.26  -0.01579881  0.004892261  -0.000845043  -0.0005604994  -0.02053847  0.01192415  -0.01582698  0.01014125  
4268268268.27  0.004215067  0.01528346  -0.0005803728  0.0007717452  0.01105874  0.02007724  0.009805718  0.01599129  
4272272272.27  0.01466954  -0.003718379  0.0005861113  0.0005446339  0.01972195  -0.01048629  0.01618973  -0.009624454  
4276276276.28  -0.003135086  -0.01411508  0.0006869956  -0.0005794222  -0.009994879  -0.0194292  -0.009545971  -0.01630314  
4280280280.28  -0.0135839  0.002662621  -0.0005763837  -0.0005715836  -0.0190217  0.009702109  -0.01643637  0.00974365  
4284284284.28  0.00213986  0.01269496  -0.0005571393  0.0004078135  0.009431248  0.01840489  0.009938644  0.0162496  
4288288288.29  0.0116755  -0.001290215  0.0003465836  0.0005241556  0.0177905  -0.009214467  0.01602213  -0.0101748  
4292292292.29  4.807214e-05  -0.01051253  0.0006341556  -0.0003005743  -0.008931459  -0.0170187  -0.01038011  -0.01568392  
4296296296.3  -0.009364761  -0.002031746  -0.000302736  -0.0006686453  -0.01614664  0.008618388  -0.01534108  0.01059388  
4300300300.3  -0.005428486  0.008480074  -0.0006922119  0.0002441755  0.008356031  0.01471064  0.01094015  0.01490706  
4304304304.3  0.01030271  0.01123403  0.0001937897  0.0006530324  0.01261128  -0.006961438  0.01424493  -0.01130729  
4308308308.31  0.01351987  -0.01828764  0.0006729257  -0.0001897252  -0.003657771  -0.01193954  -0.01159163  -0.01355345  
4312312312.31  -0.02319514  -0.008299908  -0.00017242  -0.0006703142  -0.01389519  0.001588944  -0.01302265  0.01177376  
4316316316.32  -0.004317572  0.02269661  -0.0007139504  6.048607e-05  0.001440592  0.01530028  0.0120622  0.01235932  
4320320320.32  0.02184428  0.002806199  0.0002568546  0.00074721  0.01626124  -0.001490971  0.01196754  -0.0125283  
4324324324.32  0.001834516  -0.0211929  0.000691136  -0.0002193911  -0.001832818  -0.0169504  -0.01323032  -0.01116706  
4328328328.33  -0.02069426  -0.001273897  -0.0001465724  -0.0006988579  -0.01746511  0.00214782  -0.01037265  0.01383349  
4332332332.33  -0.0008992275  0.02057121  -0.0006596312  0.000119027  0.002703126  0.01799181  0.01456463  0.009316868  
4336336336.34  0.02067455  0.0004810764  0.0001234861  0.0006374974  0.01854023  -0.003384376  0.008192671  -0.01530029  
4340340340.34  1.64677e-05  -0.02088489  0.0006970582  -0.0001312686  -0.004167033  -0.01900348  -0.01612728  -0.006732616  
4344344344.34  -0.02125528  0.0006248393  -8.158573e-05  -0.0007932562  -0.01962677  0.005220279  -0.005173239  0.01666016  
4348348348.35  0.001645262  0.02187628  -0.0007789113  0.0001905122  0.006807692  0.02025133  0.01717281  0.003456796  
4352352352.35  0.02217294  -0.003043136  0.0002083839  0.0007574608  0.02043701  -0.008840595  0.001713854  -0.01736853  
4356356356.36  -0.00443124  -0.02243707  0.0007694652  -0.0002126239  -0.01092729  -0.0204339  -0.01739235  0.0001535967  
4360360360.36  -0.02250822  0.006166843  -0.0002277321  -0.0008630803  -0.02012552  0.0133026  0.00182551  0.01697285  
4364364364.36  0.008141424  0.02238365  -0.0008625819  0.0003156054  0.01602093  0.01949724  0.01657806  -0.00321083  
4368368368.37  0.02214176  -0.01030314  0.0003643246  0.0009371026  0.01833177  -0.01890879  -0.004344511  -0.01617734  
4372372372.37  -0.01293885  -0.02114816  0.0009422795  -0.0004076301  -0.02210266  -0.01633936  -0.01580579  0.005507384  
4376376376.38  -0.01940128  0.01550184  -0.0004255349  -0.001179879  -0.01341332  0.0248557  0.006558956  0.01525963  
4380380380.38  0.0176561  0.01686803  -0.001428167  0.000657164  0.02708305  0.009626198  0.01485644  -0.007372918  
4384384384.38  0.01394633  -0.01887943  0.001134032  0.001546321  0.005548175  -0.02783249  -0.007920623  -0.01441445  
4388388388.39  -0.01928252  -0.01119149  0.001682442  -0.001767914  -0.02774054  -0.002046862  -0.01400327  0.008175506  
4392392392.39  -0.008436912  0.01928956  -0.002898122  -0.00104591  0.001285412  0.02708601  0.008072102  0.01412106  
4396396396.4  0.018631  0.006021387  0.0004900123  0.00296907  0.02588221  -0.004011169  0.01495633  -0.008467412  
4400400400.4  0.004273673  -0.01756857  0.002054807  -0.00104866  -0.005963427  -0.02456503  -0.009508707  -0.01539869  
4404404404.4  -0.0164554  -0.002884108  -0.001037229  -0.001442636  -0.022931  0.007635776  -0.01530604  0.01055287  
4408408408.41  -0.001868681  0.01531618  -0.001191702  0.0009340443  0.008560308  0.02145378  0.01114865  0.01505552  
4412412412.41  0.01408876  0.001297933  0.0008076173  0.0009657146  0.02012723  -0.008934742  0.0148807  -0.01145954  
4416416416.42  0.001193424  -0.01305153  0.0009899019  -0.0008102406  -0.009047114  -0.01924052  -0.01161299  -0.01503267  
4420420420.42  -0.01221997  -0.000978053  -0.0007925191  -0.0008295542  -0.01859978  0.009186606  -0.01517023  0.01189721  
4424424424.42  -0.001050047  0.01124428  -0.0006792159  0.0005890141  0.009256949  0.01793262  0.0120552  0.01521149  
4428428428.43  0.010349  0.001476574  0.0005596145  0.0007862211  0.01753814  -0.009135469  0.01552807  -0.01212223  
4432432432.43  0.00202309  -0.009447412  0.000735089  -0.0005221248  -0.009077527  -0.017191  -0.01216766  -0.01582946  
4436436436.44  -0.00843041  -0.002904438  -0.0005473252  -0.0007035355  -0.01681664  0.009135948  -0.01632706  0.0122373  
4440440440.44  -0.004583976  0.007097979  -0.000659439  0.0004148502  0.009199332  0.01623591  0.0123898  0.01681372  
4444444444.44  0.006121702  0.007646479  0.0003257185  0.0006610997  0.01512379  -0.009106232  0.01731524  -0.01263558  
4448448448.45  0.01287884  -0.006978002  0.0007596476  -0.0001761837  -0.008063416  -0.01331594  -0.01285001  -0.01788359  
4452452452.45  -0.01316144  -0.01713144  -0.0002818856  -0.0009141653  -0.01221418  0.004913019  -0.01847283  0.01324399  
4456456456.46  -0.01510875  0.01996485  -0.0008379891  0.0002184124  0.00160748  0.01367966  0.01390387  0.0188103  
4460460460.46  0.02245432  0.01096744  0.0001785898  0.00103732  0.01622676  -0.0001661752  0.01894246  -0.01426217  
4464464464.46  0.008170686  -0.02273923  0.001165921  -0.0003851592  0.0001367153  -0.01836359  -0.01469704  -0.01920025  
4468468468.47  -0.02232004  -0.006582493  -0.000430079  -0.000854181  -0.01969596  -0.0001598159  -0.01931778  0.01536741  
4472472472.47  -0.005755735  0.02185191  -0.0008641387  0.0001939782  -0.0002475279  0.02070774  0.01575688  0.01908213  
4476476476.48  0.02176524  0.005458692  0.0002798112  0.0009741066  0.02169765  0.0003501338  0.01891081  -0.016261  
4480480480.48  0.005268299  -0.02173991  0.000907139  -0.0003041201  0.0006033339  -0.02250447  -0.01644256  -0.01860336  
4484484484.48  -0.02168883  -0.005127665  -0.0001674725  -0.0007118573  -0.02329038  -0.0008122744  -0.0180689  0.016681  
4488488488.49  -0.005518022  0.021611  -0.0009289508  6.112114e-05  -0.001350372  0.02399411  0.01650725  0.01767302  
4492492492.49  0.02200028  0.006036913  -0.0001342249  0.0009267943  0.02498335  0.002054328  0.01739642  -0.01636379  
4496496496.5  0.006777454  -0.02272228  0.001093487  4.342241e-05  0.002876116  -0.02637793  -0.01632291  -0.01736644  
4500500500.5  -0.02394854  -0.007161947  0.0002063784  -0.001244424  -0.02829754  -0.003125086  -0.01696478  0.01660468  
4504504504.5  -0.007383203  0.02555897  -0.001262964  6.903215e-05  -0.003154528  0.03047704  0.01671026  0.01664856  
4508508508.51  0.02735063  0.006538564  -3.384227e-05  0.0008827358  0.03277946  0.002063765  0.01581552  -0.01720145  
4512512512.51  0.005532701  -0.02851203  0.001038035  0.0002374549  0.0006536955  -0.03428042  -0.01701326  -0.01456337  
4516516516.52  -0.02982169  -0.004222938  0.00028839  -0.001091473  -0.03574656  0.00120981  -0.01353493  0.01650062  
4520520520.52  -0.002735741  0.03050154  -0.001229898  -0.0004386373  0.003222326  0.0362661  0.01570275  0.01270939  
4524524524.52  0.0309574  0.0009588553  -0.0003707955  0.001322226  0.03676513  -0.005290599  0.01225639  -0.01478637  
4528528528.53  -0.0008736067  -0.03099885  0.001252486  0.0007044954  -0.007479579  -0.0366315  -0.01421521  -0.01178185  
4532532532.53  -0.03075309  0.002727766  0.0007871757  -0.0015868  -0.03631468  0.009831994  -0.01145924  0.01361298  
4536536536.54  0.004735653  0.03004159  -0.001767484  -0.0009049555  0.01243745  0.03503727  0.01316576  0.01088922  
4540540540.54  0.02851554  -0.006533432  -0.001128793  0.002138086  0.03278014  -0.01432363  0.01027081  -0.01238307  
4544544544.54  -0.007343013  -0.02628719  0.003078441  0.001590104  -0.01515662  -0.03017078  -0.01118394  -0.009521458  
4548548548.55  -0.02490249  0.007615262  0.0008679788  -0.004806147  -0.02840726  0.01553684  -0.009763376  0.009422993  
4552552552.55  0.007912765  0.02351017  -0.005622907  0.00185197  0.01590132  0.02666338  0.008418684  0.01159676  
4556556556.56  0.02254693  -0.007972161  0.003935536  0.003085601  0.02513758  -0.01650375  0.01305213  -0.01018944  
4560560560.56  -0.008589235  -0.02138462  0.001287585  -0.003242361  -0.01700512  -0.0231604  -0.01166296  -0.0122098  
4564564564.56  -0.01975052  0.009443549  -0.002519247  -0.0004666297  -0.02093309  0.01781695  -0.01119502  0.01266786  
4568568568.57  0.009480393  0.01745829  -0.0001877776  0.001848804  0.01772193  0.01797671  0.01305108  0.009604701  
4572572572.57  0.01543701  -0.00877947  0.001443821  0.0002219239  0.0153902  -0.01669988  0.008172511  -0.01274681  
4576576576.58  -0.007724924  -0.01375505  0.0002557172  -0.001142415  -0.01526236  -0.01344578  -0.01213465  -0.007211688  
4580580580.58  -0.01250594  0.006603861  -0.001032044  -0.0002147209  -0.01227179  0.01386348  -0.006724393  0.01169456  
4584584584.58  0.005456272  0.0115438  -0.0002451292  0.0009170381  0.01299287  0.01134125  0.01158223  0.006352184  
4588588588.59  0.01066281  -0.004525454  0.0008273377  0.000170354  0.01031156  -0.01235868  0.00575602  -0.01171414  
4592592592.59  -0.003567701  -0.009681753  8.451378e-05  -0.0006168631  -0.0117954  -0.009193589  -0.01181962  -0.005092429  
4596596596.6  -0.008737155  0.002245157  -0.0004729862  -0.000220252  -0.008074137  0.01121148  -0.00448036  0.01192001  
4600600600.6  0.000832767  0.007849995  -0.0001961215  0.0005132446  0.01067861  0.006996497  0.01222119  0.004002311  
4604604604.6  0.006900596  0.00121113  0.0003277643  0.0002144675  0.00529713  -0.01006189  0.003074893  -0.01255211  
4608608608.61  0.004215165  -0.006544622  0.0003638925  -0.0003770621  -0.00874191  -0.003947275  -0.01251124  -0.002837787  
4612612612.61  -0.00744914  -0.008519776  -0.0003990886  -0.0003317372  -0.001837367  0.006965078  -0.002127611  0.01324568  
4616616616.62  -0.01309046  0.01271274  -0.0003203098  0.0004598933  0.002806609  0.0008764572  0.01415866  0.001323252  
4620620620.62  0.02111093  0.01105341  0.0003865177  0.0004042923  0.004329786  0.001261431  0.0002567749  -0.0148007  
4624624624.62  0.004630954  -0.02391734  0.0002679776  -0.0003865304  0.0009439258  -0.008534111  -0.01574912  0.001141166  
4628628628.63  -0.02275661  -0.0003625895  -0.0003745  -0.0003904933  -0.01086477  0.001071798  0.002584914  0.01635668  
4632632632.63  0.001710634  0.02132334  -0.0004469544  0.0004684041  0.003105952  0.01192487  0.01677202  -0.004386204  
4636636636.64  0.02041285  -0.002860918  0.0006653054  0.0003526944  0.01223044  -0.004791239  -0.006183489  -0.01712388  
4640640640.64  -0.003864172  -0.0198043  0.0002439224  -0.0005824397  -0.006255554  -0.01241567  -0.01676157  0.008455117  
4644644644.64  -0.01935748  0.004677585  -0.0007377724  -0.0002368759  -0.01257112  0.007620343  0.01013747  0.01602056  
4648648648.65  0.005380162  0.01931337  -0.000222501  0.0005785422  0.00900666  0.01305769  0.01497594  -0.01159983  
4652652652.65  0.01961171  -0.006264627  0.000709361  0.0002151253  0.01356299  -0.01081713  -0.01243674  -0.01379567  
4656656656.66  -0.007623431  -0.02015805  0.0001098793  -0.000797015  -0.01317468  -0.01392797  -0.01283205  0.01299859  
