# Hz    S   RI   R   50.0
4000000000.0  -0.006167857  -0.0005062945  -0.0007169326  -0.000543822  -0.009288669  0.02049471  -0.007172619  0.02349983  
4004004004.0  -0.001289678  0.005096597  -0.0004933621  0.0005823207  0.02052505  0.007860985  0.02359768  0.006845681  
4008008008.01  0.004297036  0.002692193  0.0005365742  0.0005943747  0.00640991  -0.0204478  0.006633602  -0.02356453  
4012012012.01  0.004693499  -0.003896301  0.0006392716  -0.0006125207  -0.0200429  -0.004645681  -0.02360664  -0.006435429  
4016016016.02  -0.004329988  -0.007328392  -0.0006353793  -0.0005368495  -0.002342178  0.01890626  -0.006144084  0.02363024  
4020020020.02  -0.01045428  0.006279081  -0.0005742733  0.0005213107  0.01636348  0.0002314444  0.02336311  0.005965494  
4024024024.02  0.01047799  0.01263213  0.0005155804  0.0006715127  -0.0006810226  -0.01249281  0.005964036  -0.02334659  
4028028028.03  0.01188328  -0.01565338  0.0006107345  -0.000559842  -0.008329395  -0.0005823445  -0.02346622  -0.005761944  
4032032032.03  -0.01893017  -0.008705111  -0.0004228312  -0.0006819487  -0.003661555  0.005573107  -0.005430321  0.02333592  
4036036036.04  -0.005429181  0.02020484  -0.0006791647  0.0006726737  0.004652242  0.007062101  0.02343059  0.005489437  
4040040040.04  0.01995622  0.003124627  0.0005872531  0.0006219846  0.00952021  -0.004674456  0.00519564  -0.0237488  
4044044044.04  0.00169102  -0.01979943  0.0005713709  -0.000609466  -0.005112385  -0.01157787  -0.02428483  -0.004508132  
4048048048.05  -0.01967988  -0.0007375443  -0.0004790943  -0.0006216624  -0.01325428  0.005677353  -0.003612958  0.02454131  
4052052052.05  -7.914387e-06  0.019936  -0.0006153518  0.0004847731  0.006268173  0.01490268  0.02483481  0.002397912  
4056056056.06  0.02030604  -0.0007450163  0.0003968786  0.0006579172  0.01632997  -0.007224363  0.0007348746  -0.02479627  
4060060060.06  -0.001514124  -0.02102049  0.0008401536  -0.0003998888  -0.008341888  -0.01777378  -0.02414929  0.001138036  
4064064064.06  -0.02183265  0.00286882  -0.0007249814  -0.0008512172  -0.01897039  0.01019514  0.002762543  0.02290147  
4068068068.07  0.004422998  0.02256826  -0.000642253  0.0007160917  0.01212504  0.01988393  0.02139053  -0.004136915  
4072072072.07  0.02290139  -0.006949844  0.0006064901  0.0005549486  0.02000057  -0.01509388  -0.005205452  -0.01967171  
4076076076.08  -0.009464649  -0.02203942  0.0005890976  -0.0003897033  -0.01788493  -0.01868102  -0.01791221  0.005912283  
4080080080.08  -0.02077651  0.01149466  -0.0003636328  -0.0008029276  -0.016848  0.02002667  0.006197209  0.01619125  
4084084084.08  0.01331123  0.01919059  -0.0008230816  0.0005755522  0.0216815  0.01441829  0.01477743  -0.006066786  
4088088088.09  0.01723837  -0.01454968  0.0005967768  0.0008657319  0.01181152  -0.02264607  -0.006071174  -0.01371977  
4092092092.09  -0.01540348  -0.01485371  0.0008569024  -0.0007379392  -0.02306736  -0.008853404  -0.01282812  0.006003344  
4096096096.1  -0.01274295  0.01562538  -0.0006970082  -0.000843106  -0.006083245  0.02272416  0.006254533  0.01209942  
4100100100.1  0.01550792  0.01085605  -0.0008284748  0.0007603567  0.02203577  0.003666309  0.01149789  -0.006365336  
4104104104.1  0.009230646  -0.01522591  0.001064337  0.0009747513  0.001597025  -0.02121565  -0.006613938  -0.01100991  
4108108108.11  -0.01496669  -0.007510764  0.0009099024  -0.001206679  -0.02035246  0.0004449127  -0.01062954  0.006919092  
4112112112.11  -0.005933789  0.01454803  -0.001647182  -0.0004601632  0.002685616  0.01959169  0.007645674  0.01063581  
4116116116.12  0.01375389  0.004431447  2.414957e-07  0.001633169  0.01817114  -0.004911846  0.01027653  -0.008805661  
4120120120.12  0.003251511  -0.01291392  0.001524321  -0.0003936264  -0.00677449  -0.01661666  -0.009969369  -0.00971012  
4124124124.12  -0.01201278  -0.001873811  -0.0005820246  -0.001029082  -0.01472751  0.008471168  -0.008856071  0.0112781  
4128128128.13  -0.001045936  0.01098409  -0.0009641527  0.0007029239  0.009697339  0.01294015  0.01232637  0.00784926  
4132132132.13  0.009797707  0.0002588675  0.0007267821  0.0006395372  0.01115764  -0.010942  0.006774225  -0.01348253  
4136136136.14  -9.446303e-05  -0.008510489  0.0004188045  -0.000641153  -0.01175934  -0.009093452  -0.01433321  -0.005345393  
4140140140.14  -0.007442542  7.775256e-05  -0.0005943317  -0.0004461286  -0.007254636  0.01227889  -0.004160822  0.01499968  
4144144144.14  -0.0001012293  0.006481392  -0.0002380269  0.0004962799  0.01243734  0.005308621  0.01529844  0.002857763  
4148148148.15  0.005662915  0.001094948  0.0003884841  0.0004393992  0.003637128  -0.01216949  0.001957488  -0.01540595  
4152152152.15  0.002191571  -0.006027959  0.0003318449  -0.0006516736  -0.01174517  -0.002393724  -0.01584152  -0.001567553  
4156156156.16  -0.006925364  -0.003233691  -0.0005940153  -0.0001759124  -0.001240063  0.01108957  -0.001057399  0.01643669  
4160160160.16  -0.00380227  0.009053828  -0.0001929461  0.0005636574  0.009699862  0.0007151602  0.01710204  0.0004687026  
4164164164.16  0.01156562  0.002661558  0.000579934  0.0001750293  0.001388291  -0.008478133  -0.0002053542  -0.01775506  
4168168168.17  0.0002121144  -0.01278711  0.000135051  -0.0005564583  -0.008244696  -0.002744037  -0.01840802  0.0008711295  
4172172172.17  -0.01311158  0.001833692  -0.0005413555  -0.0001019491  -0.003965257  0.008567834  0.001454402  0.01902056  
4176176176.18  0.003612792  0.0129018  -0.0001807265  0.0005179177  0.009373836  0.005141378  0.01957685  -0.002045936  
4180180180.18  0.01254614  -0.004829727  0.000349394  0.0001116749  0.006034655  -0.01047414  -0.002609703  -0.02020667  
4184184184.18  -0.005809434  -0.01248171  0.0003484353  -0.0004565135  -0.01165901  -0.00690109  -0.02095328  0.002991821  
4188188188.19  -0.0127048  0.00678766  -0.0005739064  -0.0003259482  -0.007815413  0.01293943  0.003707079  0.02194051  
4192192192.19  0.007880911  0.01297094  -0.0004041591  0.0007071251  0.01453853  0.008546855  0.02268155  -0.004779601  
4196196196.2  0.01309899  -0.009259917  0.0005996958  0.0003365493  0.009064982  -0.01640454  -0.006121899  -0.02327823  
4200200200.2  -0.01062423  -0.01324915  0.0004352192  -0.0006237662  -0.01826723  -0.00941053  -0.02325285  0.00755997  
4204204204.2  -0.01343378  0.01209311  -0.0006836033  -0.0003550756  -0.009666699  0.02031489  0.008714439  0.0228045  
4208208208.21  0.01347692  0.01344001  -0.0007479878  0.0006359611  0.02208555  0.009726776  0.02198652  -0.009219777  
4212212212.21  0.01356622  -0.01569677  0.0007942687  0.0007047257  0.009619887  -0.02510762  -0.00970535  -0.02164359  
4216216216.22  -0.0179247  -0.013106  0.0008631977  -0.0009458711  -0.02786708  -0.008719329  -0.02100298  0.0101099  
4220220220.22  -0.01164408  0.02029285  -0.001025107  -0.0008732524  -0.006519457  0.03050667  0.01043721  0.02029846  
4224224224.22  0.02164411  0.01003013  -0.001335477  0.001368016  0.031572  0.004329918  0.01914239  -0.01015148  
4228228228.23  0.007693175  -0.02332598  0.00188056  0.001123496  0.001301531  -0.0331336  -0.009835187  -0.01853543  
4232232232.23  -0.02369637  -0.005110314  0.0009062475  -0.00228946  -0.0328243  0.00156859  -0.0179279  0.008982953  
4236236236.24  -0.002858833  0.02306584  -0.002593196  -0.0005739249  0.00387634  0.03147527  0.008187801  0.01753637  
4240240240.24  0.0221223  0.001759468  -0.0003335649  0.002947543  0.03006193  -0.004753869  0.01753886  -0.007137957  
4244244244.24  0.0006917855  -0.02143227  0.003032341  -0.0006482214  -0.005626876  -0.02909735  -0.006458983  -0.01804288  
4248248248.25  -0.02074773  0.0001347994  -0.00138201  -0.002436921  -0.028031  0.006376598  -0.01850514  0.006421632  
4252252252.25  0.0009164098  0.01987102  -0.001755942  0.001446526  0.006913778  0.02681438  0.006453165  0.01840562  
4256256256.26  0.01885555  -0.001356322  0.001202644  0.001250748  0.02538581  -0.006997752  0.0181051  -0.006222393  
4260260260.26  -0.001470134  -0.01783288  0.001080733  -0.0009962147  -0.006685285  -0.02418912  -0.005840328  -0.01777838  
4264264264.26  -0.01703647  0.001339419  -0.0008275944  -0.0008985638  -0.02328637  0.006299386  -0.01775263  0.005422119  
4268268268.27  0.001111655  0.01646016  -0.0008912752  0.00071828  0.005773655  0.022608  0.004843253  0.01775612  
4272272272.27  0.01587684  -0.001003037  0.0005552775  0.0008551618  0.02199691  -0.005350433  0.01784597  -0.004575633  
4276276276.28  -0.0006763529  -0.01538173  0.0009035409  -0.0004472895  -0.004904106  -0.02159376  -0.004298039  -0.01798328  
4280280280.28  -0.01495364  0.0006873724  -0.0004683349  -0.0007827273  -0.02119218  0.004865521  -0.01807198  0.004354807  
4284284284.28  0.0005018345  0.01419354  -0.0008215837  0.0002407111  0.00459522  0.02042847  0.004348089  0.01786076  
4288288288.29  0.01364476  -0.0001702539  0.0002985871  0.0008316805  0.02005527  -0.00425946  0.017954  -0.004282864  
4292292292.29  0.0002340914  -0.01294903  0.0007788691  -0.0002613784  -0.004056113  -0.01944023  -0.004516288  -0.0178259  
4296296296.3  -0.01227885  -0.0007771781  -0.0002362483  -0.0007598441  -0.01898403  0.003847105  -0.01768346  0.004688128  
4300300300.3  -0.001527515  0.01146865  -0.0008143536  0.0002223944  0.003718884  0.01835782  0.004948986  0.01747974  
4304304304.3  0.01055764  0.002761262  0.0001705506  0.0006878852  0.01755841  -0.003679121  0.01702019  -0.005334087  
4308308308.31  0.004983222  -0.01014468  0.0007240195  -0.000102692  -0.003306337  -0.01644551  -0.005555867  -0.01650145  
4312312312.31  -0.01182041  -0.007814427  2.872294e-05  -0.0007082163  -0.01545871  0.00233078  -0.01615988  0.005673032  
4316316316.32  -0.008272089  0.01514074  -0.0008222474  -3.760701e-05  0.0009492104  0.01516984  0.005792655  0.01578181  
4320320320.32  0.01716331  0.006651849  0.000135818  0.000822481  0.01565279  -2.983126e-05  0.01569474  -0.006182975  
4324324324.32  0.005025631  -0.01767289  0.0007072993  -0.0001001985  0.0002695203  -0.01625448  -0.006892026  -0.01531767  
4328328328.33  -0.01751988  -0.003935811  8.228397e-06  -0.0007533139  -0.01669321  -0.0003209644  -0.01490628  0.007440983  
4332332332.33  -0.003356782  0.01744521  -0.0007436695  3.899127e-05  -0.0001604193  0.01710806  0.008323452  0.01428003  
4336336336.34  0.01753097  0.002906456  1.587629e-05  0.0007243466  0.01759306  -0.0002090124  0.01375684  -0.009204258  
4340340340.34  0.002600475  -0.01769982  0.0007027077  -3.363724e-05  -0.0006544677  -0.01799247  -0.01030083  -0.01284828  
4344344344.34  -0.01815109  -0.001943621  6.276546e-05  -0.0007549713  -0.01849088  0.001333103  -0.0118188  0.0112405  
4348348348.35  -0.001197384  0.01851648  -0.0008400712  -1.089405e-05  0.002383233  0.01910157  0.01234485  0.01055924  
4352352352.35  0.01889306  0.0001674023  3.78613e-05  0.0008362645  0.01947992  -0.003769318  0.009067061  -0.01323537  
4356356356.36  -0.0008614712  -0.01915311  0.0008641905  -7.065599e-05  -0.005267377  -0.01964492  -0.01386347  -0.007323959  
4360360360.36  -0.01941017  0.002168456  -9.048067e-05  -0.0008953854  -0.01976714  0.007017275  -0.00567141  0.01417391  
4364364364.36  0.003418543  0.01958782  -0.0009229058  0.0001269097  0.008999783  0.01976462  0.0144712  0.004212426  
4368368368.37  0.01977849  -0.005101214  0.0001159612  0.0009991991  0.01953306  -0.01136069  0.002789553  -0.01470211  
4372372372.37  -0.007212203  -0.0197785  0.001129043  -0.000187183  -0.01409431  -0.01889736  -0.01476383  -0.001365287  
4376376376.38  -0.01923587  0.009508886  -0.0003115626  -0.001293323  -0.01754592  0.01689886  -8.836678e-05  0.01462177  
4380380380.38  0.01200504  0.01806451  -0.001501532  0.0004631998  0.020047  0.01549819  0.01459495  -0.001096229  
4384384384.38  0.01613679  -0.01417951  0.0009616159  0.001668792  0.01250969  -0.02233349  -0.001979723  -0.01434133  
4388388388.39  -0.01575613  -0.01384839  0.001752539  -0.001454942  -0.0238431  -0.009214638  -0.0142706  0.002784319  
4392392392.39  -0.01146302  0.0167092  -0.002353201  -0.001471522  -0.005936201  0.02445698  0.003112709  0.01427411  
4396396396.4  0.01714301  0.008954532  -0.0001304008  0.002860353  0.02452534  0.002753457  0.01495599  -0.00353166  
4400400400.4  0.006702662  -0.01691916  0.002238361  -0.0005858439  0.0001345764  -0.02400703  -0.004555572  -0.01556773  
4404404404.4  -0.01629268  -0.004921738  -0.0007567229  -0.001660296  -0.02306763  0.002157781  -0.01579004  0.005780645  
4408408408.41  -0.00345396  0.01553439  -0.001369211  0.0008102152  0.003800756  0.02197433  0.006715733  0.01563616  
4412412412.41  0.01461818  0.002462447  0.0007655459  0.00106953  0.02073262  -0.00486161  0.01547083  -0.007367814  
4416416416.42  0.001942353  -0.01376752  0.001019908  -0.0006500063  -0.005396632  -0.01987239  -0.007654095  -0.01557112  
4420420420.42  -0.0130934  -0.001590973  -0.000653607  -0.0009286384  -0.01914808  0.005815241  -0.01562295  0.008090993  
4424424424.42  -0.001358594  0.01232225  -0.0008095435  0.000496284  0.006037496  0.01859188  0.008341284  0.0156859  
4428428428.43  0.01177028  0.001425283  0.000494942  0.0008292395  0.01820736  -0.006115557  0.01596198  -0.008593793  
4432432432.43  0.001617518  -0.01116539  0.0007904284  -0.0004895353  -0.006138619  -0.01799411  -0.008840689  -0.01629838  
4436436436.44  -0.01043139  -0.002127409  -0.0004037767  -0.000738679  -0.0177354  0.006120319  -0.01659508  0.009000046  
4440440440.44  -0.003080499  0.009863868  -0.0008418403  0.0004015812  0.005975958  0.01748419  0.009108294  0.01696854  
4444444444.44  0.009335748  0.004549783  0.0002835101  0.000812523  0.01722016  -0.005901486  0.01748856  -0.00926734  
4448448448.45  0.007090958  -0.009528407  0.0008457924  -0.000228861  -0.005590674  -0.01672992  -0.009534888  -0.01810998  
4452452452.45  -0.0119541  -0.009985769  -0.000350898  -0.001033276  -0.01608711  0.00456816  -0.0186993  0.009968479  
4456456456.46  -0.01056617  0.01612147  -0.0008903233  0.0003479322  0.002842054  0.01624011  0.0104975  0.01903636  
4460460460.46  0.01896719  0.008593541  0.0003430319  0.0009975308  0.01741385  -0.001511921  0.01937123  -0.01096915  
4464464464.46  0.006494137  -0.01988332  0.0009945378  -0.0004976103  -0.00089333  -0.01876665  -0.01136861  -0.01960462  
4468468468.47  -0.01996107  -0.005260708  -0.0004114907  -0.0006684418  -0.01982501  0.0005870222  -0.01981503  0.01198847  
4472472472.47  -0.004499274  0.01984631  -0.0006033114  0.0001948208  0.0003549153  0.0206877  0.01251601  0.01976173  
4476476476.48  0.01991449  0.004168198  0.000110796  0.0007621846  0.02149302  -0.0001341601  0.01959496  -0.01292523  
4480480480.48  0.004041962  -0.02000585  0.0008272167  -5.398904e-05  0.0001522903  -0.0222417  -0.01321924  -0.0193638  
4484484484.48  -0.02005087  -0.003998984  1.526529e-05  -0.0007274416  -0.02280805  -0.0004779766  -0.01888466  0.01335503  
4488488488.49  -0.004369855  0.0201562  -0.001057998  -2.44638e-05  -0.001099075  0.02363202  0.01328593  0.01887649  
4492492492.49  0.02066551  0.004727832  -0.0001412278  0.000817958  0.02459323  0.001652581  0.01865494  -0.01350447  
4496496496.5  0.005385932  -0.02119664  0.001055126  0.000384267  0.002399854  -0.02573568  -0.01357367  -0.01844312  
4500500500.5  -0.02254424  -0.005760603  0.0003131306  -0.001317477  -0.02759398  -0.002695796  -0.01823851  0.01376286  
4504504504.5  -0.005835252  0.02399165  -0.001400799  -4.173388e-05  -0.002685358  0.02948079  0.01398169  0.01802312  
4508508508.51  0.02567555  0.005088676  -3.090077e-05  0.000909222  0.03168622  0.001726838  0.01732945  -0.01474093  
4512512512.51  0.004047558  -0.02672967  0.001177857  0.0004578957  0.0003854893  -0.03298467  -0.01459592  -0.01607093  
4516516516.52  -0.0278522  -0.002922702  0.000439188  -0.001181945  -0.03407856  0.001222006  -0.0150755  0.01424208  
4520520520.52  -0.001628703  0.02848313  -0.001287946  -0.0004402967  0.00281362  0.03482961  0.01364857  0.01442532  
4524524524.52  0.02889865  7.211501e-05  -0.0006214096  0.001507321  0.03528793  -0.004731948  0.01367903  -0.01298631  
4528528528.53  -0.001565338  -0.02902104  0.001594904  0.0008122316  -0.006726967  -0.03525218  -0.01237725  -0.01303213  
4532532532.53  -0.02874856  0.00330283  0.0009970729  -0.001989651  -0.03491836  0.008978592  -0.01258668  0.01174583  
4536536536.54  0.005136616  0.02821562  -0.002237759  -0.000748377  0.01135913  0.03382809  0.01125059  0.01219548  
4540540540.54  0.02682336  -0.00675457  -0.001039523  0.002703567  0.03176134  -0.01314763  0.0114261  -0.0105735  
4544544544.54  -0.007423983  -0.02487473  0.004043628  0.0008943878  -0.01387166  -0.02952371  -0.009100388  -0.01108918  
4548548548.55  -0.0237315  0.00770389  -0.001099781  -0.005042412  -0.02783272  0.01428675  -0.01205381  0.007767197  
4552552552.55  0.008045278  0.02259921  -0.00377768  0.003137144  0.01473505  0.02625902  0.008213258  0.0135347  
4556556556.56  0.02168108  -0.008421378  0.003335586  0.001889517  0.02493677  -0.01532339  0.01365687  -0.009638906  
4560560560.56  -0.008936672  -0.0204889  0.0008975654  -0.002677484  -0.01603903  -0.0230139  -0.01064149  -0.01279915  
4564564564.56  -0.01899146  0.009735811  -0.002196114  -0.0004383883  -0.02085096  0.01669248  -0.01182304  0.01129232  
4568568568.57  0.009809462  0.01699816  -0.0001597255  0.001701624  0.01667918  0.01811441  0.01167927  0.01047299  
4572572572.57  0.01501986  -0.00924366  0.001245678  9.648082e-05  0.0156245  -0.01580066  0.009016402  -0.01145121  
4576576576.58  -0.008243161  -0.0134148  0.0002895273  -0.001033244  -0.01444579  -0.01373141  -0.01088123  -0.008008511  
4580580580.58  -0.01232961  0.007218655  -0.0009480827  -0.000220329  -0.01249427  0.0132914  -0.007451295  0.01053842  
4584584584.58  0.006187563  0.01151105  -0.0002191823  0.0008133974  0.01231176  0.01167165  0.01038178  0.006974431  
4588588588.59  0.01073861  -0.005257369  0.0007036492  0.0002394672  0.01064176  -0.01165935  0.006376233  -0.01043873  
4592592592.59  -0.004299011  -0.01006475  0.0002038755  -0.0006266016  -0.01109425  -0.009745766  -0.01058237  -0.005715608  
4596596596.6  -0.0093953  0.003304946  -0.0005460337  -0.0001370784  -0.008695041  0.01047452  -0.004972276  0.01069481  
4600600600.6  0.001910037  0.008811367  -0.0003144548  0.0004793087  0.009828112  0.007854517  0.0107561  0.004529332  
4604604604.6  0.008454287  -0.0002392214  0.0004429061  0.0002705986  0.006751006  -0.009242377  0.003792404  -0.0111588  
4608608608.61  0.002040526  -0.00868268  0.000321977  -0.0004785188  -0.008144423  -0.005697375  -0.01124633  -0.003237394  
4612612612.61  -0.01044286  -0.004929391  -0.0004264109  -0.0003748121  -0.00481195  0.006499127  -0.002563671  0.01183204  
4616616616.62  -0.006476249  0.01504076  -0.0003166415  0.0004803732  0.004259349  0.00510686  0.01264774  0.001818912  
4620620620.62  0.01969882  0.003398044  0.0004857013  0.0003990041  0.007457031  -0.002979679  0.0008022264  -0.013306  
4624624624.62  -0.001010245  -0.02039746  0.00026531  -0.0005396123  -0.003838061  -0.00932321  -0.01420295  0.0005124069  
4628628628.63  -0.01935372  0.003699093  -0.0005135536  -0.0002647754  -0.01042398  0.005179918  0.001993519  0.01473296  
4632632632.63  0.005234417  0.01826847  -0.0002260906  0.0005338587  0.006658602  0.01080303  0.01517467  -0.003682172  
4636636636.64  0.01749296  -0.006219379  0.000565109  0.0003010895  0.01095771  -0.008015314  -0.00550883  -0.01526354  
4640640640.64  -0.007099215  -0.0169768  0.0002994917  -0.0006420736  -0.009452479  -0.01099859  -0.01529893  0.007358702  
4644644644.64  -0.01672523  0.008030872  -0.0007541896  -0.0001361726  -0.01090115  0.01085186  0.009200902  0.01445034  
4648648648.65  0.008937446  0.01644572  -0.000177826  0.0005756871  0.01237411  0.01092118  0.01347627  -0.01045789  
4652652652.65  0.01661957  -0.009986459  0.0008432815  0.0002689616  0.01094348  -0.01410286  -0.01102001  -0.01253787  
