# Hz    S   RI   R   50.0
4000000000.0  0.0264606  0.0008046763  -0.0001960912  0.0009300449  0.02582976  -0.005204216  0.006358102  -0.01371068  
4004004004.0  -0.001097061  -0.02721999  0.0009766371  0.0001904571  -0.007996548  -0.02613207  -0.01446276  -0.004714619  
4008008008.01  -0.02747686  0.00366979  0.0001849394  -0.001043946  -0.02571501  0.01143791  -0.002894575  0.0148555  
4012012012.01  0.006574693  0.02705409  -0.001302101  -0.0001722427  0.01517112  0.02435986  0.01493882  0.001058215  
4016016016.02  0.02565227  -0.00957056  6.02063e-05  0.001469333  0.02169681  -0.01874802  -0.0006645911  -0.01470034  
4020020020.02  -0.01222488  -0.02333515  0.001709473  -0.0003341399  -0.02161746  -0.0181774  -0.01436538  0.002028422  
4024024024.02  -0.02027741  0.01407926  -0.0006437193  -0.001901208  -0.01375913  0.02341806  0.003357004  0.0138776  
4028028028.03  0.01494015  0.01698747  -0.001945144  0.001465294  0.02379704  0.009360318  0.01333093  -0.004111136  
4032032032.03  0.0137879  -0.01484336  0.002209966  0.001303546  0.005537056  -0.02311824  -0.004462939  -0.01315363  
4036036036.04  -0.01399649  -0.011303  0.0002744795  -0.00249321  -0.02178633  -0.002600531  -0.01344094  0.00508538  
4040040040.04  -0.009435724  0.01291777  -0.001920338  0.0004050844  -0.0003558699  0.02027525  0.005983724  0.01355706  
4044044044.04  0.01163012  0.008068483  0.0005639034  0.001449134  0.01890865  -0.001003794  0.01353416  -0.006668692  
4048048048.05  0.007107269  -0.01046253  0.001090071  -0.000554618  -0.00196952  -0.01775957  -0.007194985  -0.01350496  
4052052052.05  -0.009369474  -0.006519094  -0.0005365896  -0.0009671123  -0.0169833  0.002643171  -0.01367284  0.00754746  
4056056056.06  -0.00613108  0.008456195  -0.000784915  0.0005082504  0.003163106  0.01642652  0.00788791  0.01399167  
4060060060.06  0.007461383  0.005901274  0.0003805566  0.0007929585  0.01607808  -0.003673645  0.01443729  -0.008256163  
4064064064.06  0.005845563  -0.006577203  0.0007738437  -0.0003470166  -0.00426219  -0.01593487  -0.008595388  -0.01503373  
4068068068.07  -0.005605106  -0.005927065  -0.0004212694  -0.0007797003  -0.01572367  0.004891613  -0.01578164  0.009132397  
4072072072.07  -0.006195483  0.004470399  -0.000712007  0.0004445699  0.005726384  0.01564018  0.009739583  0.01659147  
4076076076.08  0.00302749  0.006871952  0.0003548287  0.0006411716  0.01519816  -0.006790321  0.01741484  -0.01045749  
4080080080.08  0.008395706  -0.001302512  0.0007549298  -0.0002502442  -0.008027955  -0.0141658  -0.01151346  -0.01817417  
4084084084.08  0.0001290032  -0.01133552  -0.0003384639  -0.0006993797  -0.01206727  0.009010254  -0.01873863  0.01268724  
4088088088.09  -0.01587631  -0.0001718663  -0.0007630826  0.0003421121  0.00856676  0.008790645  0.01414331  0.01914686  
4092092092.09  0.002959579  0.02092424  0.0003266897  0.0007391567  0.00573588  -0.00519837  0.01897673  -0.01554721  
4096096096.1  0.02303008  -0.008692962  0.0007326172  -0.000383501  -0.000283725  -0.005832028  -0.01664755  -0.0184725  
4100100100.1  -0.01389822  -0.02225113  -0.0003634539  -0.0006832183  -0.008389749  -0.003437198  -0.01796882  0.01769717  
4104104104.1  -0.02011712  0.01737506  -0.0007129284  0.0003813581  -0.005330327  0.01182308  0.01822602  0.01717942  
4108108108.11  0.01952232  0.01762491  0.0002593159  0.0007230658  0.0150509  0.005696704  0.01642062  -0.01854026  
4112112112.11  0.0156132  -0.02066399  0.000689365  -0.0002227267  0.005313565  -0.01755492  -0.01880368  -0.01579177  
4116116116.12  -0.02136257  -0.01389317  -0.0002114705  -0.0007405172  -0.01946993  -0.004683714  -0.01511568  0.01868088  
4120120120.12  -0.01260846  0.02165885  -0.0007555336  0.0002359682  -0.004114942  0.02101128  0.01853121  0.01475675  
4124124124.12  0.02204248  0.01174491  0.0002542521  0.0007346451  0.02233586  0.00353459  0.01449016  -0.0183986  
4128128128.13  0.01099225  -0.02236822  0.0006532148  -0.0001180953  0.003040742  -0.02357705  -0.01831241  -0.01423648  
4132132132.13  -0.02274584  -0.01047461  -8.992024e-05  -0.0007667954  -0.02478071  -0.002507467  -0.01404105  0.01848538  
4136136136.14  -0.009997539  0.02340197  -0.0007020977  7.107927e-05  -0.001968786  0.02593232  0.01852957  0.01363038  
4140140140.14  0.02388194  0.009471541  -0.0001005607  0.0008184504  0.02706267  0.001317295  0.01314871  -0.01850619  
4144144144.14  0.009206326  -0.02451651  0.000895579  0.000107079  0.0006835506  -0.02821652  -0.01849621  -0.01269829  
4148148148.15  -0.02532281  -0.008877303  9.487147e-05  -0.0009384126  -0.02953752  -2.513252e-05  -0.01232706  0.01841021  
4152152152.15  -0.008593093  0.02664919  -0.0009437971  -0.0001515691  0.0008723882  0.03118928  0.01852027  0.01186871  
4156156156.16  0.02829203  0.007718289  -0.0002943334  0.001040858  0.0330514  -0.002556561  0.0111776  -0.01874156  
4160160160.16  0.006124272  -0.03018252  0.001137173  0.0003253151  -0.005243536  -0.03476262  -0.01893051  -0.01027467  
4164164164.16  -0.03162719  -0.003412486  0.0004117277  -0.00131456  -0.03557249  0.009047282  -0.009018809  0.01888248  
4168168168.17  0.0002088993  0.03209633  -0.001513869  -0.0004389308  0.01363124  0.03481242  0.01864874  0.007531486  
4172172172.17  0.03097647  -0.003909911  -0.0004686182  0.001742767  0.0319415  -0.0177232  0.005953329  -0.01793592  
4176176176.18  -0.006750966  -0.02849208  0.002270627  0.0005205417  -0.02030119  -0.02789581  -0.01674824  -0.004545284  
4180180180.18  -0.02539304  0.008633802  -0.000115333  -0.002943889  -0.02334228  0.0214119  -0.003800086  0.01517398  
4184184184.18  0.009339159  0.02220339  -0.002920001  0.001086383  0.02114603  0.01924639  0.0139847  0.003560068  
4188188188.19  0.01916345  -0.00923508  0.002103403  0.002467875  0.01555776  -0.02005555  0.003551164  -0.0132548  
4192192192.19  -0.008475397  -0.01663232  0.001229402  -0.002522782  -0.01852395  -0.01264925  -0.01315912  -0.003230073  
4196196196.2  -0.01446961  0.007328441  -0.001878303  -0.0004116547  -0.01024015  0.01667172  -0.00223061  0.01279903  
4200200200.2  0.005979027  0.01289197  -0.0002153556  0.001532906  0.01468413  0.008512154  0.01201712  0.001522073  
4204204204.2  0.01146055  -0.004638749  0.001125783  8.631283e-05  0.007164094  -0.01308227  0.00089756  -0.01138759  
4208208208.21  -0.003129536  -0.01031667  0.0001036491  -0.0009195333  -0.01149414  -0.006005927  -0.01082225  -0.0004027768  
4212212212.21  -0.009489266  0.001688328  -0.0008216418  -3.173361e-05  -0.004970809  0.01025327  5.53537e-05  0.01063368  
4216216216.22  0.0001425128  0.008652269  -4.941515e-05  0.0006079428  0.009198135  0.003743672  0.01050861  -0.0007656724  
4220220220.22  0.00801967  0.001663808  0.0004977509  0.000112497  0.002215633  -0.00792508  -0.001689334  -0.01035696  
4224224224.22  0.003794393  -0.007653293  0.000132824  -0.0004987112  -0.006345516  -0.0009133868  -0.01019399  0.002489323  
4228228228.23  -0.007822592  -0.006301511  -0.0004902036  -5.822613e-05  0.0009200145  0.004352852  0.003824414  0.01025827  
4232232232.23  -0.009085547  0.008951901  -3.564799e-05  0.0003813897  0.001214812  -0.002108974  0.01002672  -0.005125335  
4236236236.24  0.01191321  0.01151145  0.0003641486  6.627209e-06  -0.001872245  0.002547748  -0.00647778  -0.009758954  
4240240240.24  0.01235857  -0.01588897  4.82243e-05  -0.0002458378  0.005903121  -6.555979e-05  -0.00944335  0.008052205  
4244244244.24  -0.0198271  -0.01068965  -0.0003416033  -2.666482e-05  -0.00363283  -0.00750373  0.009687264  0.008808481  
4248248248.25  -0.007725663  0.02197079  0.000135509  0.0001889508  -0.006965045  0.006895045  0.007898187  -0.0112279  
4252252252.25  0.02291025  0.004668307  0.0001845406  -3.747609e-05  0.009193353  0.005238433  -0.01277871  -0.006885557  
4256256256.26  0.001911758  -0.02271801  -5.938132e-05  -0.0001395848  0.003049356  -0.01033104  -0.005371108  0.01396966  
4260260260.26  -0.0220419  2.311292e-05  -0.000104478  4.130229e-05  -0.01066362  -0.001002243  0.01475687  0.004067215  
4264264264.26  0.001685283  0.02148282  -1.385118e-06  0.0001320654  0.0009135767  0.01062263  0.002726626  -0.01518035  
4268268268.27  0.02095824  -0.003024092  0.0001498111  -4.463548e-05  0.01028552  -0.002726401  -0.01559028  -0.001917136  
4272272272.27  -0.004661806  -0.02055213  -0.000112474  -0.0001321468  -0.004744231  -0.009867062  -0.001040528  0.01598507  
4276276276.28  -0.01998676  0.006379236  -6.46019e-05  3.916469e-05  -0.009003361  0.006820582  0.01615324  0.0001772866  
4280280280.28  0.008003408  0.01914893  2.963472e-05  0.0001299194  0.008756577  0.007911968  -0.0003899159  -0.01637001  
4284284284.28  0.0181691  -0.009970633  0.0001902701  -7.12421e-05  0.006388132  -0.01090032  -0.01631713  0.0008668024  
4288288288.29  -0.0114323  -0.01675088  -3.901084e-05  -0.00030916  -0.01258455  -0.004514225  0.001162322  0.01644218  
4292292292.29  -0.01555807  0.01326443  -0.0001664351  7.447865e-05  -0.002493446  0.01447922  0.01664732  -0.00141423  
4296296296.3  0.01505742  0.01373419  5.250727e-05  0.0003541429  0.01610437  -0.0001564692  -0.001726941  -0.01686711  
4300300300.3  0.01131989  -0.01658414  0.0003353097  -0.0001806038  -0.003400258  -0.01705237  -0.01690818  0.001875455  
4304304304.3  -0.01734599  -0.008782365  -7.361338e-05  -0.0004391372  -0.01725977  0.006456312  0.002111578  0.01687351  
4308308308.31  -0.006214297  0.01779404  -0.0004687352  0.0002557623  0.009335722  0.01701044  0.01673092  -0.001981774  
4312312312.31  0.01753623  0.003567336  0.000256598  0.0004349218  0.01614562  -0.01215888  -0.001730075  -0.01702495  
4316316316.32  0.001434007  -0.01665294  0.0005322623  -0.0001528469  -0.01428861  -0.01469518  -0.01712283  0.001706394  
4320320320.32  -0.01596953  0.0004303598  -0.0002953185  -0.0007210863  -0.01346945  0.0162487  0.001470767  0.01723343  
4324324324.32  0.001823831  0.01458318  -0.0008411687  0.0003550162  0.01753058  0.01168463  0.01742313  -0.001408811  
4328328328.33  0.01332557  -0.00276592  0.0005704376  0.001005636  0.01009422  -0.01835833  -0.00115656  -0.01764778  
4332332332.33  -0.003409531  -0.01212291  0.0009860155  -0.0009540161  -0.01889705  -0.008440581  -0.01785927  0.0009214241  
4336336336.34  -0.01091439  0.003650486  -0.001163805  -0.0006720711  -0.007041182  0.0188764  0.0007683687  0.01809483  
4340340340.34  0.003637506  0.009875821  -0.0004932428  0.001169758  0.01884054  0.005948899  0.01851795  -0.0007391687  
4344344344.34  0.008984915  -0.003290161  0.001113225  0.000283605  0.004926041  -0.01861226  -0.0007058427  -0.01880756  
4348348348.35  -0.002851525  -0.008104969  0.0002894691  -0.0009794636  -0.01846858  -0.003745154  -0.01910246  0.001093868  
4352352352.35  -0.007450177  0.002087127  -0.0009960753  -0.0002553625  -0.002729491  0.01783984  0.00129081  0.01908841  
4356356356.36  0.001095202  0.006765389  -0.0001893324  0.0009253376  0.01722082  0.001573947  0.0190071  -0.001646774  
4360360360.36  0.006570169  0.0002724453  0.0009509737  8.383012e-05  0.0006497761  -0.01607774  -0.001764357  -0.01868885  
4364364364.36  0.0020408  -0.006476996  8.81869e-05  -0.0008021874  -0.01489319  0.0003177485  -0.01852134  0.0018673  
4368368368.37  -0.00702306  -0.004368051  -0.000780635  -9.110303e-05  0.001318897  0.01325513  0.001843882  0.0183938  
4372372372.37  -0.006956529  0.008877463  -0.0001118918  0.0006951863  0.01078271  -0.002069021  0.01830103  -0.001933404  
4376376376.38  0.01247145  0.00893167  0.0006259851  0.0001896025  -0.00195784  -0.007500555  -0.002218604  -0.01829949  
4380380380.38  0.008604949  -0.01708728  0.0001902801  -0.0007140237  -0.004160796  -0.0001391026  -0.01815563  0.002603325  
4384384384.38  -0.02072058  -0.006263582  -0.0005528904  -0.0002203489  -0.003404579  0.002314885  0.002997008  0.01794826  
4388388388.39  -0.002781807  0.02246483  -0.0003687533  0.0005584283  0.002178578  0.006709768  0.01781271  -0.003708374  
4392392392.39  0.02269136  -0.0001378736  0.0007406167  0.00026818  0.009156127  -0.003082476  -0.004421584  -0.01734434  
4396396396.4  -0.00223571  -0.0223592  0.0002457811  -0.000584222  -0.004197758  -0.01063933  -0.01694909  0.005346151  
4400400400.4  -0.02171043  0.003821546  -0.0007037845  -0.0002729266  -0.01151726  0.00546457  0.006205725  0.01611891  
4404404404.4  0.005040807  0.02097414  -1.507248e-05  0.0006227352  0.00654191  0.01200279  0.01506951  -0.007056605  
4408408408.41  0.02026499  -0.005868752  0.0004193335  0.000194441  0.01220134  -0.007364546  -0.007687303  -0.01403273  
4412412412.41  -0.006402202  -0.01967743  0.0002217968  -0.0003976424  -0.00816502  -0.01223042  -0.01288831  0.008519901  
4416416416.42  -0.01927427  0.007032954  -0.0003463061  -0.0002236638  -0.01208145  0.00893068  0.00902734  0.0113848  
4420420420.42  0.007285879  0.01899173  -0.0003349596  0.0004948855  0.009568159  0.01199493  0.01028204  -0.009276533  
4424424424.42  0.01887226  -0.007910662  0.0005411112  0.0002874214  0.0118568  -0.01047952  -0.009676128  -0.009022016  
4428428428.43  -0.008676354  -0.01877214  0.0001456964  -0.0005248049  -0.01142761  -0.01135739  -0.007815596  0.01003147  
4432432432.43  -0.01869478  0.009631196  -0.0003235731  -9.775178e-05  -0.01048809  0.01257261  0.01052739  0.006594915  
4436436436.44  0.01119337  0.01822146  -0.0003632889  0.0004212592  0.01384658  0.009259702  0.005070308  -0.01088831  
4440440440.44  0.01729043  -0.01260065  0.0005218514  0.0002718871  0.007496253  -0.01484887  -0.01107602  -0.003764026  
4444444444.44  -0.0141761  -0.0160944  0.0002115668  -0.000632507  -0.01588135  -0.005319954  -0.002501711  0.0110827  
4448448448.45  -0.01390377  0.0158584  -0.0004923986  1.722485e-05  -0.002033941  0.01632825  0.0114056  0.001282381  
4452452452.45  0.01642472  0.0110839  -9.975859e-05  0.000455326  0.01564197  -0.001270479  -0.0001051596  -0.01144644  
4456456456.46  0.008318772  -0.01645052  0.0007169056  9.087876e-05  -0.004485285  -0.01407414  -0.01123053  0.001330515  
4460460460.46  -0.01574378  -0.005474825  -0.0002422324  -0.0006886647  -0.01190928  0.007120296  0.002175123  0.01123725  
4464464464.46  -0.002935306  0.01417218  -0.0004804889  0.0007054036  0.009151773  0.009066536  0.01119574  -0.002962234  
4468468468.47  0.01224689  0.001428525  0.0002935151  0.0003133555  0.006159164  -0.01011716  -0.004124984  -0.01129458  
4472472472.47  0.0004665171  -0.01063579  0.0004213549  -0.0007350741  -0.01061626  -0.004054733  -0.01121856  0.00447064  
4476476476.48  -0.008731428  0.0001846709  -0.0007650523  -0.0001771426  -0.001660352  0.01091343  0.005286672  0.01143587  
4480480480.48  0.000496923  0.007276207  0.0002223506  0.000605111  0.01110506  -0.0001638163  0.01185398  -0.006064556  
4484484484.48  0.005842315  -0.000422628  0.0004171226  -0.0001860725  -0.002028193  -0.01093382  -0.006780684  -0.01197582  
4488488488.49  5.249901e-05  -0.004970045  -0.0001171144  -0.0004187308  -0.01060114  0.003508016  -0.01226251  0.00737986  
4492492492.49  -0.004443221  -0.0005633619  -0.0006124877  7.99217e-05  0.004647569  0.01035484  0.007799234  0.01264258  
4496496496.5  -0.001065415  0.004128716  0.0001851538  0.0006024081  0.01011807  -0.005863817  0.01322578  -0.008435548  
4500500500.5  0.004555813  0.001981259  0.0009451393  -0.0002653135  -0.007134508  -0.009286165  -0.009086886  -0.01390005  
4504504504.5  0.002419523  -0.005435238  -0.0006493987  -0.0007267534  -0.008269334  0.008154359  -0.01479747  0.01023467  
4508508508.51  -0.007202323  -0.002599014  -0.0003856178  0.0005123285  0.007866688  0.006344371  0.01155744  0.0148151  
4512512512.51  -0.001291821  0.009122198  0.0007231174  0.0004226462  0.005082121  -0.00691112  0.01499704  -0.01260606  
4516516516.52  0.01026764  -0.001024397  0.0002483653  -0.0007182656  -0.005153148  -0.00524913  -0.01348746  -0.01501947  
4520520520.52  -0.003038618  -0.01099125  -0.0003768585  -0.0002172508  -0.00524149  0.003109935  -0.01473858  0.0144148  
4524524524.52  -0.0109213  0.005284777  -0.0001863572  0.0005108021  0.001498889  0.006892135  0.01502881  0.01477358  
4528528528.53  0.007348597  0.01060466  0.000113913  0.0002429606  0.008690706  -0.0003626224  0.01465626  -0.01587337  
4532532532.53  0.01003346  -0.009308113  0.0003515762  -0.0003973038  0.000338901  -0.01104396  -0.01672905  -0.01435892  
4536536536.54  -0.01102532  -0.009018959  -0.0003553119  -8.901462e-05  -0.01321956  -3.703783e-05  -0.01354767  0.01752028  
4540540540.54  -0.007693869  0.01254146  -3.460553e-05  8.518218e-05  0.0006806413  0.01492837  0.01787262  0.01273192  
4544544544.54  0.01262285  0.006848942  -0.0003784108  0.0003244712  0.01576337  -0.0007398249  0.01159902  -0.01735447  
4548548548.55  0.006830525  -0.01368828  0.0006344792  0.0002652437  -0.0005993585  -0.01745666  -0.01650393  -0.01189932  
4552552552.55  -0.01502915  -0.006580438  0.000561887  -0.0007317455  -0.01933237  0.0009371564  -0.01183119  0.01678605  
4556556556.56  -0.006300887  0.0166918  -0.001348883  -0.0004065205  0.001608599  0.02126997  0.01639797  0.0117087  
4560560560.56  0.01913096  0.005268441  0.0001816223  0.001333217  0.02382264  -0.002523629  0.01229988  -0.01663401  
4564564564.56  0.00251237  -0.02050369  0.0008161796  0.0001160051  -0.005551684  -0.02558811  -0.01779788  -0.0115359  
4568568568.57  -0.020816  -0.0006489978  0.0004261642  -0.00125492  -0.02581217  0.007830372  -0.01024764  0.01770031  
4572572572.57  0.0009569941  0.02098941  -0.001783478  -0.0002392252  0.009733793  0.02535717  0.01668122  0.009352897  
4576576576.58  0.02104103  -0.002722633  1.277181e-05  0.002065172  0.0252136  -0.01130063  0.008829284  -0.01585139  
4580580580.58  -0.004648497  -0.0206145  0.00217843  -0.0006480934  -0.01312625  -0.02487532  -0.01490315  -0.008833888  
4584584584.58  -0.01961633  0.006159379  -0.0005205772  -0.00159811  -0.02344318  0.01489304  -0.008580509  0.01459052  
4588588588.59  0.007050291  0.01851055  -0.002284419  0.0006357594  0.01570013  0.0219432  0.01341855  0.008523517  
4592592592.59  0.01751828  -0.00795747  0.001535057  0.002086581  0.02035262  -0.01648525  0.009101587  -0.01310739  
4596596596.6  -0.008419714  -0.01613793  0.001570616  -0.001774003  -0.01666128  -0.01843412  -0.01307258  -0.008949338  
4600600600.6  -0.0149198  0.008626534  -0.001948475  -0.0009586636  -0.0168666  0.01615575  -0.008684445  0.01272207  
4604604604.6  0.008329485  0.01355152  -0.0006262118  0.001511279  0.01562825  0.01544095  0.0121561  0.008239958  
4608608608.61  0.01291846  -0.007891377  0.001418743  0.0004379964  0.01492356  -0.01478359  0.008716239  -0.01165647  
4612612612.61  -0.007795062  -0.0119022  0.0003127602  -0.001103522  -0.01467735  -0.0136183  -0.01155579  -0.008395531  
4616616616.62  -0.01128289  0.007344303  -0.001044932  -0.0001852127  -0.01282628  0.01386883  -0.008398251  0.01144551  
4620620620.62  0.00685636  0.01053006  -0.0001267068  0.0008785936  0.01309145  0.01200948  0.01131262  0.008045336  
4624624624.62  0.009863271  -0.006315619  0.0005320694  0.000126328  0.01136535  -0.01237222  0.007584272  -0.01105813  
4628628628.63  -0.005692411  -0.009203844  0.0003427451  -0.0003732214  -0.0119018  -0.0108033  -0.01084633  -0.007272462  
4632632632.63  -0.008847789  0.004864357  -0.0004694395  -0.0005630642  -0.01026901  0.01125202  -0.007160061  0.01056415  
4636636636.64  0.004234705  0.008752582  -0.0003221017  0.0007431442  0.01085685  0.009802635  0.01070934  0.006961209  
4640640640.64  0.00815982  -0.003764822  0.0004260915  0.0002263232  0.009038342  -0.01035054  0.006283692  -0.01058609  
4644644644.64  -0.002785188  -0.007677517  0.0003084296  -0.0003099388  -0.009785478  -0.008478322  -0.01057275  -0.005963667  
4648648648.65  -0.007688832  0.001410598  -0.0003279558  -0.0004531381  -0.007840384  0.009111236  -0.00542364  0.01050102  
