# Hz    S   RI   R   50.0
4000000000.0  0.02527594  -0.01558002  0.0003989237  0.0008312422  0.01497376  -0.02410081  -0.01010094  -0.01364822  
4004004004.0  -0.01839639  -0.02314325  0.0009256907  -0.0005240733  -0.02690113  -0.01116172  -0.01292368  0.011587  
4008008008.01  -0.01971394  0.02064877  -0.0005595458  -0.00103492  -0.006185058  0.02849172  0.01289754  0.01197231  
4012012012.01  0.02163364  0.01580965  -0.001194209  0.0009632322  0.0285294  0.0011364  0.01097776  -0.01368739  
4016016016.02  0.0119106  -0.02135293  0.001520541  0.001169375  -0.003644788  -0.0271174  -0.01426058  -0.009887616  
4020020020.02  -0.02011177  -0.008514738  0.0008856233  -0.00206508  -0.02470808  0.007272053  -0.00916302  0.0143171  
4024024024.02  -0.005935708  0.01821777  -0.002404614  0.0001457447  0.009708443  0.02203449  0.01433657  0.009167844  
4028028028.03  0.0162446  0.004312352  0.0009599766  0.001984562  0.01954065  -0.01118544  0.009321385  -0.0148659  
4032032032.03  0.003196238  -0.01433585  0.001304285  -0.001260977  -0.01209599  -0.01734995  -0.01553972  -0.00922779  
4036036036.04  -0.01252865  -0.002561855  -0.00106163  -0.0008417746  -0.01551126  0.01257556  -0.008890633  0.01596374  
4040040040.04  -0.002219311  0.01090616  -0.000656801  0.0009170969  0.01273413  0.01404335  0.01606906  0.00873789  
4044044044.04  0.009399611  0.002249514  0.0008406655  0.0006020857  0.01301205  -0.01269662  0.008883827  -0.01615317  
4048048048.05  0.002456631  -0.008133367  0.0005255061  -0.0007747928  -0.01279441  -0.01234341  -0.01626096  -0.009239037  
4052052052.05  -0.006930531  -0.002767096  -0.0007147542  -0.0005025316  -0.0118814  0.01300453  -0.009816823  0.01657593  
4056056056.06  -0.003225576  0.005672041  -0.000449082  0.0006699732  0.01342945  0.0114827  0.01702407  0.01047327  
4060060060.06  0.004366988  0.004036354  0.0005344014  0.0004561974  0.01089335  -0.01415764  0.01103875  -0.01779612  
4064064064.06  0.005269174  -0.002824742  0.0005550203  -0.0005073571  -0.01505538  -0.009947336  -0.0184935  -0.01172123  
4068068068.07  -0.001142021  -0.007415615  -0.0005934732  -0.0006353587  -0.008172335  0.01609606  -0.01229717  0.01958452  
4072072072.07  -0.01081931  -0.0001216075  -0.000530293  0.0005884776  0.01661506  0.005230656  0.02082877  0.01274894  
4076076076.08  6.106676e-05  0.01644967  0.0005580483  0.0005839255  0.0007535279  -0.01512285  0.01279938  -0.0221505  
4080080080.08  0.02211355  -0.004477769  0.0005630279  -0.0006411034  -0.009864476  0.00289525  -0.02377139  -0.01262299  
4084084084.08  -0.01174249  -0.02425326  -0.0005548556  -0.0005319684  0.002484096  0.002507056  -0.0116964  0.0251606  
4088088088.09  -0.02220266  0.01806138  -0.0006785403  0.0005921175  -0.002619157  0.002449303  0.02612056  0.01046283  
4092092092.09  0.02139712  0.0191595  0.0006821699  0.0005453701  0.007334457  0.004268645  0.009203222  -0.02656362  
4096096096.1  0.01615972  -0.02348477  0.0005170357  -0.0006105331  0.004560209  -0.01184668  -0.02642657  -0.007846889  
4100100100.1  -0.02466818  -0.01366333  -0.0005503556  -0.000433836  -0.01533634  -0.003681131  -0.006814823  0.02601707  
4104104104.1  -0.01183197  0.02541745  -0.0005336549  0.0004758105  -0.002592704  0.01801287  0.02537397  0.006134289  
4108108108.11  0.02599427  0.00996072  0.0005749426  0.0006350927  0.02024423  0.001157633  0.005690769  -0.02486535  
4112112112.11  0.008423071  -0.02623843  0.0005371635  -0.0005488349  -0.0002610419  -0.02184837  -0.02439775  -0.005320347  
4116116116.12  -0.02643641  -0.007308226  -0.0004730092  -0.0005196013  -0.02310272  0.001369019  -0.004993227  0.02379894  
4120120120.12  -0.006384721  0.02676439  -0.0004840418  0.0004144812  0.002511029  0.02431357  0.02335788  0.004788341  
4124124124.12  0.02704086  0.005593373  0.0004168181  0.0005490888  0.02537929  -0.003585245  0.004789686  -0.02297013  
4128128128.13  0.004844384  -0.02749025  0.0005330337  -0.0002624114  -0.004656957  -0.02648503  -0.02287853  -0.004616157  
4132132132.13  -0.02816869  -0.00407168  -0.0002392113  -0.0005934525  -0.02772738  0.005967675  -0.004211851  0.02289251  
4136136136.14  -0.003325712  0.02889016  -0.0006538818  0.0002183591  0.007296854  0.02867164  0.02274574  0.003577135  
4140140140.14  0.02976266  0.002056253  0.0001984255  0.0006020003  0.0296478  -0.009119673  0.002901358  -0.02249742  
4144144144.14  0.0007540443  -0.03044827  0.0007312819  -7.579888e-05  -0.01119885  -0.03028315  -0.02199214  -0.002074238  
4148148148.15  -0.03126647  0.0007505357  -8.501992e-05  -0.0008459066  -0.03090659  0.01352206  -0.001472925  0.02154288  
4152152152.15  0.002854761  0.0320791  -0.0008681813  2.683625e-05  0.01655307  0.0310611  0.02105078  0.0005663173  
4156156156.16  0.03235636  -0.005734657  -5.783196e-05  0.00102024  0.0302543  -0.02018793  -0.0002661094  -0.02052304  
4160160160.16  -0.008930827  -0.03196336  0.001232087  5.246935e-05  -0.0239136  -0.02835554  -0.01993694  0.001288591  
4164164164.16  -0.02991787  0.01261581  6.057681e-06  -0.001353274  -0.02425896  0.02753905  0.002591787  0.01898188  
4168168168.17  0.01526672  0.02618131  -0.001556323  -1.120208e-05  0.02913935  0.01867576  0.0176666  -0.003865778  
4172172172.17  0.02200277  -0.01602759  5.566319e-05  0.001981925  0.0131959  -0.02834069  -0.004644412  -0.01578586  
4176176176.18  -0.01554204  -0.01825341  0.002568  -0.0007697406  -0.02640319  -0.009019719  -0.01398046  0.004677487  
4180180180.18  -0.01518579  0.01427464  -0.00216583  -0.002245872  -0.005729422  0.02363647  0.004033928  0.01276541  
4184184184.18  0.0123382  0.01284731  -0.0009957403  0.002512404  0.02087801  0.003492833  0.01254261  -0.003869649  
4188188188.19  0.01118866  -0.01064693  0.002026628  5.065978e-05  0.001984576  -0.01847083  -0.004448478  -0.0123107  
4192192192.19  -0.008819981  -0.009712161  -0.0002161314  -0.001434513  -0.01616322  -0.0006152561  -0.01165991  0.005164342  
4196196196.2  -0.008622493  0.006977355  -0.0009668652  0.0002918577  0.0004992688  0.01402834  0.005772008  0.01091  
4200200200.2  0.004985037  0.007792939  0.000181135  0.0007968337  0.01196794  -0.00138876  0.01011485  -0.006237282  
4204204204.2  0.007113975  -0.003007831  0.0005872829  -0.0001507036  -0.002232187  -0.01017521  -0.006674599  -0.009532933  
4208208208.21  -0.0009198565  -0.006682662  -8.67721e-05  -0.000469695  -0.008339478  0.00319567  -0.009151435  0.007144527  
4212212212.21  -0.006563589  -0.001370554  -0.0004497415  9.786441e-05  0.004230042  0.006517585  0.00773975  0.008965524  
4216216216.22  -0.004137069  0.006716593  8.320312e-05  0.000299005  0.004192116  -0.005697022  0.00877289  -0.00881943  
4220220220.22  0.007764034  0.007302014  0.0002373771  -3.940405e-05  -0.006912607  -0.0008752921  -0.009975953  -0.008419761  
4224224224.22  0.01054267  -0.01073284  -2.827232e-05  -0.0002781427  0.003776372  0.006936254  -0.007940331  0.01125939  
4228228228.23  -0.01568761  -0.011895  -0.000237819  4.073644e-05  0.00427577  -0.008440498  0.01271816  0.007154683  
4232232232.23  -0.01077515  0.02038618  4.828935e-05  0.0001264584  -0.01133396  0.0001379623  0.006315705  -0.01412627  
4236236236.24  0.02409426  0.007025199  9.645295e-05  -6.874571e-05  0.005611623  0.01095476  -0.01552159  -0.005299991  
4240240240.24  0.002947623  -0.0250646  -2.726872e-05  -0.000110384  0.00848986  -0.009129225  -0.003897649  0.01686463  
4244244244.24  -0.02460893  0.0003151699  -0.0001756345  2.966375e-05  -0.01084703  -0.005410978  0.01789869  0.002336377  
4248248248.25  0.002676017  0.02372207  5.382267e-05  0.0001528381  -0.002677188  0.01131635  0.0005871213  -0.01869498  
4252252252.25  0.02289515  -0.004534911  8.018322e-05  -9.887634e-05  0.01148017  0.0002876026  -0.01911609  0.001245395  
4256256256.26  -0.006152357  -0.02187396  -0.0001141407  -3.690533e-05  -0.002130907  -0.01091907  0.00275219  0.0189787  
4260260260.26  -0.02101623  0.007443108  -0.0001134844  9.387099e-05  -0.01020027  0.00417764  0.01861844  -0.004010621  
4264264264.26  0.008762846  0.02023485  0.0001008851  0.0001069296  0.006164726  0.009260286  -0.004676357  -0.01810115  
4268268268.27  0.01944441  -0.01033183  3.619345e-05  -0.0001093361  0.008070137  -0.008149724  -0.01794807  0.00523618  
4272272272.27  -0.01173098  -0.01870065  -0.0001228398  -0.0001115769  -0.01006564  -0.006917347  0.005525881  0.0177914  
4276276276.28  -0.01766812  0.01365852  -0.0001027319  7.071158e-05  -0.005251094  0.01234024  0.01765679  -0.005820262  
4280280280.28  0.015423  0.01619215  9.878402e-05  0.0002045469  0.0142383  0.002931503  -0.005989265  -0.01755044  
4284284284.28  0.01442569  -0.01736458  0.0001967634  -0.0002043634  0.0002490132  -0.01607717  -0.0174647  0.006064312  
4288288288.29  -0.01881158  -0.01204496  -0.0001582892  -0.0002081352  -0.01732275  0.002845627  0.006060697  0.01757487  
4292292292.29  -0.009734453  0.02004846  -0.0002972658  0.000201205  0.006141217  0.01802783  0.01764638  -0.006052312  
4296296296.3  0.02106584  0.00703326  0.0002204257  0.0002627416  0.01836598  -0.009462261  -0.006090262  -0.01776943  
4300300300.3  0.003691963  -0.02122069  0.0003260808  -0.0001837236  -0.01324727  -0.01766103  -0.01787157  0.00615389  
4304304304.3  -0.02074479  -0.0006606841  -0.0002674233  -0.0004489806  -0.01611764  0.01640687  0.006130989  0.01784948  
4308308308.31  0.001881442  0.01946938  -0.0005272159  0.0002459058  0.01867445  0.01405457  0.01763638  -0.00595021  
4312312312.31  0.01788162  -0.003878906  0.0003462536  0.000749115  0.01191461  -0.02034899  -0.005590643  -0.01761681  
4316316316.32  -0.005238322  -0.01620536  0.0008563186  -0.0006565658  -0.0212791  -0.009830914  -0.01759687  0.005037562  
4320320320.32  -0.014404  0.006198784  -0.0008572289  -0.0007769818  -0.007973217  0.02193784  0.004684554  0.01797345  
4324324324.32  0.006650647  0.01274075  -0.0006232364  0.001019573  0.02210522  0.00614691  0.01830709  -0.004366852  
4328328328.33  0.01123553  -0.006637805  0.001215082  0.0006153072  0.004657606  -0.02189507  -0.004012085  -0.01860017  
4332332332.33  -0.006429095  -0.009959025  0.0001319276  -0.001435404  -0.02167678  -0.00337813  -0.01918832  0.00378331  
4336336336.34  -0.008895916  0.005980218  -0.001007032  7.974808e-05  -0.002354491  0.02119133  0.003946987  0.01961305  
4340340340.34  0.005308066  0.008020155  -7.937879e-06  0.0008917887  0.02078384  0.001424166  0.01982334  -0.004037178  
4344344344.34  0.007212864  -0.004464753  0.0008724992  5.624952e-05  0.0004981252  -0.02024923  -0.004191416  -0.02000307  
4348348348.35  -0.003389607  -0.0066555  -1.335816e-05  -0.0008412027  -0.01966345  0.0005138863  -0.02008225  0.004547523  
4352352352.35  -0.00612199  0.002189462  -0.0007550997  -7.304111e-06  0.001506917  0.01880636  0.004768746  0.02001617  
4356356356.36  0.0003661327  0.005837116  -7.226301e-05  0.0007539515  0.01763303  -0.002612113  0.01971712  -0.004995833  
4360360360.36  0.006012902  0.001679008  0.0007427257  1.30354e-05  -0.003525289  -0.01613659  -0.005047822  -0.01945608  
4364364364.36  0.004454094  -0.006659869  1.95386e-05  -0.0006365905  -0.01420825  0.004664777  -0.01922153  0.005042767  
4368368368.37  -0.0089386  -0.007703201  -0.0006243819  -8.887897e-05  0.005575072  0.01120722  0.005050775  0.01903247  
4372372372.37  -0.01035593  0.01347431  -0.0001162846  0.0006109159  0.007077819  -0.005224105  0.01898033  -0.005182364  
4376376376.38  0.01941845  0.009683133  0.0006124761  0.0001242891  -0.002380808  -0.003231642  -0.00533294  -0.01893061  
4380380380.38  0.006307749  -0.0243612  0.0001555884  -0.0006080866  -0.0007551646  -0.002090253  -0.01887564  0.005719129  
4384384384.38  -0.02613627  -0.001328084  -0.0004711513  -7.281539e-05  -0.006527652  0.001027268  0.006407547  0.0186645  
4388388388.39  0.002447485  0.02546195  -0.0002442513  0.0003843156  0.002765092  0.009390987  0.01828623  -0.007091897  
4392392392.39  0.02420901  -0.00452118  0.0004187452  0.0003625399  0.01095483  -0.004554977  -0.007919925  -0.01778265  
4396396396.4  -0.005945773  -0.023341  0.000437502  -0.0004659927  -0.006029307  -0.01192592  -0.01705698  0.008703063  
4400400400.4  -0.02272789  0.00672209  -0.0006391417  -0.0004621722  -0.01224382  0.007086645  0.009660571  0.0161473  
4404404404.4  0.00779473  0.02207169  -0.0003671154  0.0008244498  0.008291964  0.01277386  0.01494164  -0.01035837  
4408408408.41  0.02121633  -0.008399371  0.0006710695  0.0001381976  0.01253911  -0.009212655  -0.0111047  -0.01381803  
4412412412.41  -0.008473252  -0.02096249  0.000156259  -0.0004833812  -0.009695803  -0.01289572  -0.01236034  0.01156533  
4416416416.42  -0.02076606  0.009094292  -0.0004892565  -0.0001785496  -0.01287633  0.01079126  0.01206551  0.01109547  
4420420420.42  0.00944371  0.02078047  -0.0001592304  0.0004988047  0.01161908  0.01280248  0.009704887  -0.01232819  
4424424424.42  0.02077757  -0.01045741  0.0005047984  0.0001972859  0.01247693  -0.01295764  -0.01265537  -0.00832139  
4428428428.43  -0.01139502  -0.02070996  0.000149281  -0.0004601791  -0.01419805  -0.01193286  -0.006940795  0.01288341  
4432432432.43  -0.02068218  0.01270711  -0.0003265241  -0.000106348  -0.01089829  0.01570626  0.01308524  0.005540818  
4436436436.44  0.01460033  0.01991948  -0.0003905272  0.0003215744  0.01727183  0.009158294  0.004013646  -0.01320306  
4440440440.44  0.01893872  -0.01635985  0.0006332301  0.0002056821  0.007105494  -0.01853413  -0.01302171  -0.002789086  
4444444444.44  -0.01804097  -0.0170704  5.734889e-05  -0.0004480381  -0.01948341  -0.004300205  -0.001769457  0.01299394  
4448448448.45  -0.01485091  0.01995349  -0.0005353882  -3.576435e-05  -0.0007389688  0.02023087  0.01315498  0.0005733342  
4452452452.45  0.02066267  0.01080945  -8.946759e-05  0.0003098686  0.01923129  -0.003844213  -0.0007311229  -0.01321759  
4456456456.46  0.007664311  -0.0200698  0.0006740852  -9.523305e-05  -0.007268124  -0.01676171  -0.01283184  0.001812189  
4460460460.46  -0.01889166  -0.004526288  -0.0001137601  -0.0003543169  -0.01402354  0.01000848  0.002581029  0.01298675  
4464464464.46  -0.001775512  0.01673845  -0.0002896049  0.0002048294  0.01208047  0.01065407  0.01297122  -0.00350479  
4468468468.47  0.01433793  0.0003466379  0.0001105982  0.0003415777  0.007361753  -0.01286707  -0.00442837  -0.0129195  
4472472472.47  -0.000309263  -0.01225243  0.0007265892  -0.0003052567  -0.01298449  -0.004820182  -0.01256683  0.004954996  
4476476476.48  -0.01018589  0.0009402565  -0.0006129658  -0.0002858575  -0.002327582  0.01329583  0.005499791  0.01306185  
4480480480.48  0.001050556  0.008422369  -5.978654e-05  0.0006054118  0.01311551  0.000137608  0.01322078  -0.006265115  
4484484484.48  0.006588992  -0.0007543706  0.0002830021  1.309795e-06  -0.001679457  -0.01269899  -0.006870305  -0.01336529  
4488488488.49  -1.660222e-05  -0.005636593  -0.00016559  -0.0004266939  -0.01229409  0.003184241  -0.01372584  0.007364427  
4492492492.49  -0.004845181  -0.0008947871  -0.0005740839  -0.0003399019  0.004468791  0.01194291  0.007665278  0.01391366  
4496496496.5  -0.001496981  0.004595081  0.0001155935  0.0008983099  0.01177264  -0.005662144  0.01477176  -0.008022478  
4500500500.5  0.004151132  0.002633059  0.0008594017  -0.0002929811  -0.007464452  -0.01135327  -0.008769956  -0.01559489  
4504504504.5  0.003881098  -0.004540365  -0.0006720398  -0.0006369943  -0.010231  0.009331739  -0.01652322  0.009886141  
4508508508.51  -0.005963646  -0.005948391  -0.0001749649  0.0003151398  0.01070309  0.007309743  0.01134272  0.01669541  
4512512512.51  -0.006129195  0.009358748  0.0003020899  0.0004650407  0.004477085  -0.009659991  0.01674783  -0.01209829  
4516516516.52  0.0127488  0.004426021  0.0003732934  -0.0001879012  -0.00709453  -0.002328417  -0.01301987  -0.01672025  
4520520520.52  0.001751448  -0.01461783  -0.0002854117  -0.0005183176  -0.001559388  0.004035581  -0.01686807  0.01389791  
4524524524.52  -0.01543033  0.001874012  -0.0006654299  0.0003918088  0.0005359598  0.003045683  0.01442357  0.01696806  
4528528528.53  0.004298022  0.01520565  0.0002899222  0.0005376175  0.005067992  0.00164186  0.01698359  -0.01549479  
4532532532.53  0.01479645  -0.006305169  0.000658879  -0.0004680813  0.003086491  -0.007430316  -0.01641472  -0.01673658  
4536536536.54  -0.008437093  -0.01407254  -0.0007015871  -0.0003309202  -0.009965301  -0.003579918  -0.0163365  0.0172943  
4540540540.54  -0.01338472  0.0106652  3.307196e-06  0.0003787678  -0.003994786  0.01263178  0.01796986  0.01541291  
4544544544.54  0.01137413  0.01218641  -1.292372e-05  0.0003188616  0.01408585  0.003682755  0.01446801  -0.01770468  
4548548548.55  0.01182762  -0.01250287  0.0004042882  -0.0002941211  0.003962331  -0.01598592  -0.01729753  -0.01437823  
4552552552.55  -0.01356437  -0.01165032  0.0003638352  -0.0004003319  -0.01807103  -0.003886032  -0.01408515  0.01710804  
4556556556.56  -0.0117713  0.01520615  -0.0007012342  -0.0001871743  -0.003438231  0.0201355  0.01726774  0.01424582  
4560560560.56  0.01745994  0.01169316  -0.0002365654  0.0009109135  0.02252909  0.003784457  0.01415552  -0.01726194  
4564564564.56  0.009682433  -0.02013598  0.0007616766  0.0001583456  0.001596272  -0.02586818  -0.01817794  -0.01378112  
4568568568.57  -0.02094297  -0.007671379  0.0004063155  -0.0008221912  -0.0266281  0.0007465701  -0.01244504  0.01835608  
4572572572.57  -0.006252223  0.02212933  -0.001294376  -0.0002466531  0.002247069  0.02764448  0.01744428  0.01141854  
4576576576.58  0.02266331  0.004383598  -0.0001494073  0.001210701  0.02823952  -0.004134305  0.01087753  -0.0167363  
4580580580.58  0.002536432  -0.02324995  0.001205234  0.0001605176  -0.006089141  -0.02916192  -0.01588766  -0.01045974  
4584584584.58  -0.02327168  -0.0005167441  0.000336428  -0.001373295  -0.02898109  0.008607592  -0.01015902  0.01509336  
4588588588.59  0.001312342  0.02279857  -0.001734942  -0.0002846418  0.01070758  0.02801779  0.01431558  0.01004743  
4592592592.59  0.02200056  -0.003191297  -6.308601e-05  0.002042772  0.02663713  -0.01269149  0.00998043  -0.01356566  
4596596596.6  -0.004460717  -0.02061145  0.002212354  -0.0002345185  -0.01391161  -0.02462681  -0.01300386  -0.009896969  
4600600600.6  -0.019288  0.005343849  -0.0008829731  -0.002253451  -0.02266337  0.01420651  -0.009861913  0.01213776  
4604604604.6  0.005659448  0.01779751  -0.001819524  0.001470606  0.01409044  0.02098262  0.01151416  0.01023512  
4608608608.61  0.01673762  -0.005812866  0.001532585  0.001255456  0.01979811  -0.01387248  0.01067574  -0.01132752  
4612612612.61  -0.005973212  -0.01522348  0.0008867586  -0.001207464  -0.01380388  -0.01815105  -0.01131554  -0.01044012  
4616616616.62  -0.0141803  0.005638666  -0.001067  -0.0006479661  -0.01685499  0.01327231  -0.01033929  0.01118886  
4620620620.62  0.005133773  0.01324103  -0.0006254858  0.000914773  0.01238513  0.0157806  0.01095278  0.01003763  
4624624624.62  0.0122996  -0.004798023  0.0006442638  0.0004550508  0.0148378  -0.01170183  0.00961085  -0.01065019  
4628628628.63  -0.004130474  -0.01148704  0.0007036731  -0.0005531238  -0.01108118  -0.01423133  -0.01026876  -0.009602825  
4632632632.63  -0.0108464  0.003676473  -0.0007332895  -0.0007047569  -0.01358324  0.01063437  -0.009524263  0.01012128  
4636636636.64  0.00306975  0.01032857  -0.0004513498  0.0006839131  0.01008538  0.01279412  0.01021842  0.009187762  
4640640640.64  0.009538135  -0.002560586  0.000477209  0.0003826113  0.01198943  -0.009558178  0.008719777  -0.009958946  
4644644644.64  -0.001899495  -0.00878121  0.0004206967  -0.0004026376  -0.008794717  -0.0114261  -0.009544545  -0.00859755  
4648648648.65  -0.008031476  0.0008636137  -0.0003514041  -0.0005725478  -0.01101794  0.008312461  -0.008605765  0.009452347  
4652652652.65  -0.0002121573  0.007370038  -0.0004669352  0.0004802851  0.008127565  0.0105818  0.009731194  0.008816629  
