# Hz    S   RI   R   50.0
4000000000.0  0.0220237  -0.0130264  0.01516119  -0.01805036  0.02409489  -0.01101746  0.0256479  -0.008508814  
4004004004.0  -0.01641386  -0.01959835  -0.01958664  -0.01544732  -0.01369955  -0.02401933  -0.01204367  -0.02475771  
4008008008.01  -0.01640236  0.01778474  -0.01516875  0.02158576  -0.02294635  0.01730873  -0.02279944  0.01595973  
4012012012.01  0.01828631  0.01414237  0.02326063  0.0142987  0.02059396  0.0202403  0.01950426  0.01950148  
4016016016.02  0.01217614  -0.01922145  0.01331729  -0.02482533  0.01712057  -0.02322693  0.01582717  -0.02233857  
4020020020.02  -0.01987682  -0.009605962  -0.02631922  -0.01179811  -0.02494697  -0.01306106  -0.02441513  -0.01110325  
4024024024.02  -0.006863839  0.01987747  -0.01006174  0.02740527  -0.008826816  0.0253584  -0.00608202  0.02507593  
4028028028.03  0.01910108  0.004358089  0.02793734  0.008281318  0.02479181  0.005107404  0.02445577  0.001363796  
4032032032.03  0.002371646  -0.01781287  0.006620486  -0.02806273  0.002102866  -0.02334194  -0.002691576  -0.02278187  
4036036036.04  -0.01661951  -0.001326785  -0.02823853  -0.005573968  -0.02171133  2.201422e-05  -0.02076493  0.005642102  
4040040040.04  -0.0003950381  0.01553365  -0.004547641  0.0286389  0.001181243  0.02016375  0.007914072  0.01830989  
4044044044.04  0.01437894  -0.0001415781  0.02920919  0.003519621  0.01893174  -0.001990066  0.01610117  -0.009354074  
4048048048.05  -0.000215675  -0.01357188  0.002473506  -0.03015162  -0.002188952  -0.01803221  -0.01043784  -0.013971  
4052052052.05  -0.01311057  0.0002340929  -0.03122392  -0.0006410609  -0.01754397  0.002344224  -0.01171075  0.01118922  
4056056056.06  0.0002075314  0.01283863  0.002088393  0.03228675  0.002486512  0.01732639  0.01136604  0.009314186  
4060060060.06  0.01266906  -0.0001550149  0.03222854  -0.005564916  0.01731549  -0.002468393  0.006855009  -0.01044152  
4064064064.06  -0.0001922651  -0.01257762  -0.009171496  -0.03066354  -0.002497613  -0.01739304  -0.008736935  -0.004996705  
4068068068.07  -0.01265183  6.696779e-05  -0.02820682  0.0113071  -0.01765663  0.002477488  -0.00407714  0.006393567  
4072072072.07  4.885634e-06  0.01282471  0.01254519  0.02528701  0.002445747  0.0181648  0.003916642  0.004205052  
4076076076.08  0.01313796  3.097104e-06  0.02264817  -0.01247195  0.01867109  -0.002519259  0.005217395  -0.001759713  
4080080080.08  3.303094e-06  -0.01352936  -0.01205937  -0.02082464  -0.002577304  -0.01935637  -0.0001810486  -0.006459149  
4084084084.08  -0.01393845  9.033132e-05  -0.01945558  0.01135581  -0.02020179  0.002770744  -0.008049175  -0.001164881  
4088088088.09  0.0002033485  0.01453763  0.01038996  0.01882124  0.003006409  0.02102977  -0.00225902  0.009679735  
4092092092.09  0.0150204  -0.0004226055  0.01859894  -0.009782981  0.0219062  -0.003400612  0.01130497  0.003183654  
4096096096.1  -0.0007482402  -0.01551616  -0.009393617  -0.01859647  -0.003774558  -0.02268819  0.004138254  -0.01343866  
4100100100.1  -0.01608345  0.001104011  -0.01892193  0.00933801  -0.02349872  0.004306661  -0.01579607  -0.004904363  
4104104104.1  0.001502917  0.01652558  0.009497545  0.01916865  0.004843171  0.02438323  -0.005039936  0.01859229  
4108108108.11  0.01693577  -0.001973777  0.01950678  -0.01015519  0.02499719  -0.005535832  0.02155047  0.004583717  
4112112112.11  -0.002505023  -0.01723897  -0.01091083  -0.01933649  -0.006233081  -0.02556277  0.003223277  -0.02406354  
4116116116.12  -0.01753366  0.002981901  -0.01903963  0.01147267  -0.02601582  0.006612496  -0.02632917  -0.00173217  
4120120120.12  0.003262948  0.01761788  0.01192407  0.01847263  0.007163465  0.02650651  0.0002957105  0.02766689  
4124124124.12  0.01809891  -0.003634652  0.01840651  -0.0121206  0.02720904  -0.007542341  0.02913873  -0.001819444  
4128128128.13  -0.004221207  -0.01834136  -0.01256876  -0.01815437  -0.008208263  -0.02800078  -0.003934727  -0.0302928  
4132132132.13  -0.01846205  0.004769289  -0.01798859  0.01274534  -0.02867724  0.009017021  -0.03072149  0.005928209  
4136136136.14  0.005288113  0.01848753  0.01299948  0.01791861  0.01000644  0.02939898  0.007717083  0.03114138  
4140140140.14  0.0181303  -0.005614432  0.01793352  -0.01329926  0.02988378  -0.01128564  0.03133009  -0.009631568  
4144144144.14  -0.005117063  -0.01773729  -0.01359191  -0.01818736  -0.01263184  -0.02999418  -0.01147539  -0.03115092  
4148148148.15  -0.01873559  0.004020716  -0.01853564  0.01394973  -0.03005673  0.01369399  -0.03100976  0.01302353  
4152152152.15  0.004291003  0.0211059  0.0146025  0.01936642  0.01506716  0.0304845  0.01494525  0.03099642  
4156156156.16  0.02321324  -0.006499067  0.02011755  -0.01571246  0.03093695  -0.01708555  0.03079709  -0.01720571  
4160160160.16  -0.009574425  -0.02384426  -0.0176543  -0.02078531  -0.0201387  -0.03048431  -0.02030422  -0.0299428  
4164164164.16  -0.0231569  0.01288681  -0.02093513  0.01986888  -0.02866273  0.02330766  -0.02782996  0.02354372  
4168168168.17  0.01564104  0.02083423  0.02240913  0.02010896  0.02578731  0.02514407  0.02610575  0.0241319  
4172172172.17  0.01800566  -0.01714462  0.01881876  -0.02425386  0.02111512  -0.02656444  0.01992411  -0.02728505  
4176176176.18  -0.0175716  -0.01490425  -0.02598321  -0.01716397  -0.02632541  -0.01723676  -0.02735604  -0.01539262  
4180180180.18  -0.01252918  0.01716989  -0.01591085  0.026993  -0.0139815  0.02494366  -0.01147457  0.02621193  
4184184184.18  0.01637628  0.01031805  0.02836501  0.01451759  0.02326039  0.01140761  0.02446537  0.007944847  
4188188188.19  0.008615132  -0.01529579  0.01304994  -0.02961502  0.009425748  -0.02147155  0.004955785  -0.0222941  
4192192192.19  -0.0141429  -0.007320469  -0.03088243  -0.01146055  -0.01965774  -0.007895838  -0.01982527  -0.002554099  
4196196196.2  -0.006326954  0.01294311  -0.009777403  0.03231385  -0.006750023  0.01769486  -0.0006079563  0.01701113  
4200200200.2  0.01187634  0.005829077  0.03387216  0.007693777  0.01613762  0.006069257  0.0142052  -0.0006788957  
4204204204.2  0.005284565  -0.01104137  0.004524052  -0.03530138  0.005543831  -0.01473556  -0.001562085  -0.01116632  
4208208208.21  -0.0102764  -0.004983312  -0.03577933  -0.0008549844  -0.01360129  -0.005226634  -0.008085165  0.001505998  
4212212212.21  -0.004766075  0.00975629  0.003123063  0.03522071  -0.005027301  0.01279198  0.0008176757  0.005539309  
4216216216.22  0.00936767  0.004528877  0.03313411  -0.00665771  0.01218186  0.00469488  0.003599597  0.0005396457  
4220220220.22  0.004178899  -0.009147856  -0.008822026  -0.03065961  0.004290195  -0.01179393  0.002120524  -0.002595105  
4224224224.22  -0.008988379  -0.003901836  -0.02812581  0.01029876  -0.0116106  -0.003971469  -0.002407342  -0.003443619  
4228228228.23  -0.003491837  0.008930918  0.01057506  0.02559106  -0.003333757  0.01141568  -0.004411581  0.002610517  
4232232232.23  0.008962472  0.003102754  0.02389597  -0.01055279  0.01132864  0.002742995  0.003094529  0.004975418  
4236236236.24  0.002694006  -0.009035122  -0.01019486  -0.02250629  0.002149385  -0.01143493  0.005332781  -0.00377355  
4240240240.24  -0.00919301  -0.002230934  -0.0217801  0.009760126  -0.01163214  -0.00153831  -0.004657869  -0.005584703  
4244244244.24  -0.001782145  0.009555082  0.009438887  0.02154229  -0.000776622  0.0120655  -0.005622366  0.005761913  
4248248248.25  0.01011583  0.0009421224  0.0216241  -0.009565243  0.01256769  -0.0003598045  0.007065086  0.005270028  
4252252252.25  -1.701955e-05  -0.01055859  -0.009903904  -0.02163355  -0.001521012  -0.01308106  0.004721857  -0.00843065  
4256256256.26  -0.01098823  0.001148884  -0.02166643  0.01040313  -0.01373792  0.003085933  -0.01021637  -0.003935799  
4260260260.26  0.002549849  0.01131597  0.01115524  0.02185074  0.004850799  0.01411704  -0.002341797  0.01205458  
4264264264.26  0.01162049  -0.00397145  0.02189617  -0.01215627  0.01440511  -0.006627177  0.01380188  0.000423452  
4268268268.27  -0.005664682  -0.01182275  -0.01351677  -0.02183075  -0.008774749  -0.01476018  -0.002204497  -0.01543518  
4272272272.27  -0.01167672  0.007740358  -0.02104547  0.01533556  -0.01461336  0.0112606  -0.01649915  0.005861642  
4276276276.28  0.009592167  0.01107068  0.01662716  0.01970227  0.01341399  0.0139785  0.009362591  0.01623945  
4280280280.28  0.01032191  -0.0115367  0.01822145  -0.01759359  0.01327684  -0.01573325  0.0154868  -0.01263329  
4284284284.28  -0.01343472  -0.008967685  -0.01806556  -0.01637118  -0.01794019  -0.01195735  -0.01570415  -0.01385492  
4288288288.29  -0.007331958  0.01488428  -0.01481119  0.01803366  -0.01053488  0.01970214  -0.01186901  0.01783645  
4292292292.29  0.0161081  0.005389113  0.01765864  0.01348833  0.02114253  0.008767194  0.01946482  0.009823687  
4296296296.3  0.002901892  -0.01689791  0.01243118  -0.01729338  0.006863413  -0.0220586  0.00777488  -0.02054642  
4300300300.3  -0.01668627  4.315227e-05  -0.01676954  -0.01157131  -0.02259992  -0.005021257  -0.02124357  -0.005935816  
4304304304.3  0.003233049  0.01454317  -0.01087067  0.01619146  -0.003276027  0.02245286  -0.004097829  0.02145234  
4308308308.31  0.009830341  -0.003637406  0.01554521  0.01040694  0.02184278  0.002073448  0.02127731  0.002646308  
4312312312.31  0.0003493174  -0.00787201  0.01017955  -0.01488663  0.00152773  -0.0213469  0.001558994  -0.02104238  
4316316316.32  -0.009480568  -0.002609953  -0.01420945  -0.01032271  -0.02078104  -0.001328314  -0.02060895  -0.0009830677  
4320320320.32  -0.002921475  0.01113579  -0.01061581  0.01419019  -0.001112609  0.02101155  -0.0002817175  0.02088509  
4324324324.32  0.01196655  0.00255521  0.0139806  0.01073412  0.02062869  0.000747525  0.0205496  -0.000594301  
4328328328.33  0.002210779  -0.01241336  0.0110637  -0.01398014  0.0005192587  -0.02057519  -0.001264314  -0.02046315  
4332332332.33  -0.01271915  -0.001913117  -0.01430625  -0.01140817  -0.02026401  -0.0002468567  -0.02003752  0.002201275  
4336336336.34  -0.001623092  0.01294743  -0.01158594  0.01449978  -0.0003218471  0.01991513  0.002937244  0.01942647  
4340340340.34  0.01294787  0.001318181  0.01494819  0.01193124  0.01976469  0.0002824589  0.01875087  -0.003565427  
4344344344.34  0.001194895  -0.01297454  0.0122324  -0.01564556  0.0003298821  -0.01957781  -0.004284422  -0.01798668  
4348348348.35  -0.01296269  -0.001015282  -0.0165348  -0.01226013  -0.01937309  -0.0002586381  -0.01662567  0.004832658  
4352352352.35  -0.0008756615  0.01285167  -0.01219338  0.01745533  -0.0001925152  0.01905465  0.005278125  0.01530741  
4356356356.36  0.01274418  0.0007009266  0.01840977  0.01182667  0.01859318  0.0002545905  0.01339024  -0.005504015  
4360360360.36  0.0008109438  -0.01233879  0.01168645  -0.01915246  0.0006322819  -0.01794992  -0.004558472  -0.01162294  
4364364364.36  -0.01219757  -0.001099051  -0.02035202  -0.01123411  -0.01762604  -0.001006136  -0.01008813  0.004069843  
4368368368.37  -0.001278235  0.01224619  -0.01064181  0.02143577  -0.001468086  0.01753575  0.002951513  0.008310219  
4372372372.37  0.01234243  0.00153161  0.02270741  0.009848413  0.01747035  0.001926716  0.006833104  -0.001220376  
4376376376.38  0.001723217  -0.01246405  0.008578464  -0.02380185  0.002183846  -0.01759566  0.0007587614  -0.005773366  
4380380380.38  -0.01265618  -0.001768001  -0.02459802  -0.007275652  -0.01771515  -0.002291529  -0.005273877  -0.003045294  
4384384384.38  -0.00175089  0.0128171  -0.005643288  0.02534581  -0.002321112  0.01777882  -0.0052922  0.005493413  
4388388388.39  0.01322272  0.001909107  0.02563518  0.004504896  0.01808025  0.00253139  0.005960138  0.007344421  
4392392392.39  0.001684027  -0.01363387  0.002862405  -0.02623019  0.002335235  -0.01853778  0.009347137  -0.007367492  
4396396396.4  -0.01419747  -0.001453897  -0.02647022  -0.001320902  -0.0188768  -0.001941689  -0.009189456  -0.01066001  
4400400400.4  -0.0008981577  0.01453773  0.0001436137  0.02669588  -0.001370298  0.0193535  -0.01142728  0.01143943  
4404404404.4  0.01520152  0.0003897711  0.02674216  -0.001878887  0.01970853  0.0004995078  0.01391292  0.01124775  
4408408408.41  -0.0006385288  -0.01563799  -0.003721286  -0.02677455  -0.0006537804  -0.02006721  0.01032653  -0.01639869  
4412412412.41  -0.0158611  0.001884227  -0.02650204  0.005681703  -0.02013494  0.002194748  -0.0186155  -0.008508014  
4416416416.42  0.00311747  0.01606003  0.00762534  0.02595103  0.003771705  0.0199732  -0.005885941  0.02040565  
4420420420.42  0.0158632  -0.004770375  0.0248901  -0.009755671  0.01954473  -0.00571953  0.02134955  0.002322971  
4424424424.42  -0.00620119  -0.01548911  -0.01123619  -0.02334367  -0.007566135  -0.0187032  -0.001162236  -0.02097862  
4428428428.43  -0.01499056  0.008212079  -0.0217896  0.01288092  -0.01772976  0.009789939  -0.02008646  0.004985814  
4432432432.43  0.009521939  0.01384971  0.01337008  0.01987428  0.01187743  0.0160119  0.0082072  0.017767  
4436436436.44  0.01275034  -0.01176049  0.01817013  -0.0144029  0.01381265  -0.01395406  0.01494461  -0.01110154  
4440440440.44  -0.01334402  -0.01062281  -0.01465553  -0.01609081  -0.01530279  -0.01110433  -0.01301829  -0.01155608  
4444444444.44  -0.008501322  0.01409577  -0.01447082  0.01383608  -0.008459577  0.01538878  -0.008201939  0.01332815  
4448448448.45  0.0151755  0.006561324  0.01373099  0.01373946  0.01637209  0.0066379  0.01432189  0.005689077  
4452452452.45  0.003428661  -0.01524123  0.01239423  -0.01356274  0.003929869  -0.01677963  0.002510604  -0.01456228  
4456456456.46  -0.01432365  -0.001415488  -0.01272516  -0.01131851  -0.01644075  -0.001435746  -0.0141194  0.0003996005  
4460460460.46  -0.0003780068  0.01328616  -0.01106538  0.01192234  0.0001188328  0.0157815  0.002333662  0.01335721  
4464464464.46  0.01290814  -0.0004393717  0.01183669  0.01065912  0.01546204  -0.00176917  0.01292304  -0.004378039  
4468468468.47  -0.001223934  -0.01261037  0.01012518  -0.01128971  -0.002879837  -0.01474353  -0.006085258  -0.01207422  
4472472472.47  -0.01219669  0.001928432  -0.01063154  -0.009937441  -0.01441844  0.003648283  -0.01139756  0.00754438  
4476476476.48  0.002484355  0.01209424  -0.009959017  0.0104317  0.004390868  0.0142401  0.00880934  0.0107113  
4480480480.48  0.01182145  -0.003099556  0.01012886  0.009689007  0.01416472  -0.005124528  0.009897117  -0.0101012  
4484484484.48  -0.003373377  -0.01141856  0.009749214  -0.00942454  -0.005612944  -0.01394499  -0.01089073  -0.009008864  
4488488488.49  -0.01152672  0.003556832  -0.009325985  -0.009851403  -0.01398781  0.005906492  -0.008454302  0.01169377  
4492492492.49  0.003714459  0.01126186  -0.01036555  0.008508525  0.006127833  0.01397442  0.01231665  0.007475312  
4496496496.5  0.01155855  -0.003144637  0.008583776  0.01148817  0.01447356  -0.005742305  0.006952713  -0.01250887  
4500500500.5  -0.003217243  -0.01224826  0.01218629  -0.009190663  -0.005875195  -0.01535001  -0.0129535  -0.006497089  
4504504504.5  -0.01325226  0.003367162  -0.009889917  -0.01237981  -0.01657037  0.006266205  -0.00599518  0.01364321  
4508508508.51  0.004139594  0.01369365  -0.0122848  0.009967866  0.007158408  0.0172881  0.01428296  0.004564003  
4512512512.51  0.01431111  -0.004174037  0.01057964  0.01275139  0.01800485  -0.007463663  0.003364662  -0.01383327  
4516516516.52  -0.004899493  -0.01492522  0.01287957  -0.01068889  -0.008111699  -0.01884653  -0.01311836  -0.002147735  
4520520520.52  -0.01522892  0.00496209  -0.01090983  -0.01326158  -0.01940428  0.008257013  -0.001241488  0.01208802  
4524524524.52  0.004946015  0.01619909  -0.01396491  0.01149984  0.008490964  0.02077752  0.01054005  0.0008669813  
4528528528.53  0.01733636  -0.005530538  0.01184348  0.01484669  0.0220798  -0.009196952  0.0005076327  -0.008952674  
4532532532.53  -0.006171557  -0.0184196  0.01546889  -0.01291123  -0.01016887  -0.02365542  -0.007462056  -0.000645898  
4536536536.54  -0.01940456  0.007502696  -0.01370153  -0.0163313  -0.0246355  0.01206742  -0.0005713916  0.005515875  
4540540540.54  0.008832242  0.01990987  -0.01764572  0.01513539  0.01371737  0.02518833  0.00292051  0.001137946  
4544544544.54  0.01957581  -0.009414542  0.0170423  0.01905671  0.02499347  -0.0144223  0.002344486  4.080164e-05  
4548548548.55  -0.00989115  -0.02051065  0.0209098  -0.0200107  -0.01517629  -0.02590144  0.003399036  -0.004637647  
4552552552.55  -0.02117269  0.01094139  -0.02506098  -0.02253651  -0.02675828  0.01656264  -0.00847354  -0.007065482  
4556556556.56  0.01232577  0.0221682  -0.02214963  0.03300516  0.01850866  0.02767721  -0.01026046  0.01557373  
4560560560.56  0.02264806  -0.01445253  0.042396  0.01596491  0.02807594  -0.02124923  0.02596327  0.008859695  
4564564564.56  -0.01724297  -0.02192891  0.002633968  -0.04681745  -0.02477267  -0.02686171  -0.0005794605  -0.03463928  
4568568568.57  -0.02006108  0.01909668  -0.04181599  0.009682041  -0.02411235  0.02703274  -0.03455731  0.01237611  
4572572572.57  0.0197693  0.01791353  0.01517366  0.0330086  0.02773757  0.02091179  0.01956833  0.02892726  
4576576576.58  0.01603314  -0.02002113  0.02551878  -0.016251  0.0183333  -0.02763188  0.02304776  -0.02246632  
4580580580.58  -0.01959217  -0.01434506  -0.01502072  -0.02025081  -0.02678465  -0.01583765  -0.02263225  -0.01815944  
4584584584.58  -0.01297316  0.01896667  -0.01687995  0.01329284  -0.01415993  0.0257991  -0.01491781  0.02186565  
4588588588.59  0.01823287  0.01186113  0.01156749  0.01469406  0.02461751  0.01240338  0.02081243  0.01234982  
4592592592.59  0.01115145  -0.0173464  0.01335895  -0.01024099  0.01130506  -0.02329716  0.01076776  -0.01972668  
4596596596.6  -0.01643693  -0.01041389  -0.009015515  -0.012143  -0.02203933  -0.01012236  -0.01869247  -0.009121877  
4600600600.6  -0.01001756  0.01534897  -0.01135171  0.007889389  -0.009261943  0.02058582  -0.007967304  0.01761724  
4604604604.6  0.01410147  0.0100613  0.006776521  0.01092744  0.01892765  0.008661622  0.01641545  0.007010924  
4608608608.61  0.01064391  -0.01332643  0.01091786  -0.005968427  0.008736946  -0.01759929  0.006840015  -0.01553167  
4612612612.61  -0.01295203  -0.01147335  -0.005461254  -0.01068292  -0.01650622  -0.008407197  -0.01512832  -0.005932936  
4616616616.62  -0.01280821  0.01373909  -0.0107092  0.00492298  -0.008630398  0.01527495  -0.005283699  0.01460168  
4620620620.62  0.01622687  0.01204573  0.004519105  0.01065115  0.01468062  0.008901364  0.01412121  0.00432731  
4624624624.62  0.009262125  -0.01627464  0.01066341  -0.003996078  0.008834266  -0.01433304  0.003409453  -0.01348365  
4628628628.63  -0.01494089  -0.007905112  -0.003570167  -0.01107718  -0.01398005  -0.008593321  -0.01297178  -0.0028171  
4632632632.63  -0.007454269  0.01379453  -0.01140013  0.003534555  -0.008297679  0.01367191  -0.001771358  0.01284248  
4636636636.64  0.01296884  0.007260649  0.003484929  0.01169582  0.01321847  0.007872716  0.01229404  0.0004557654  
4640640640.64  0.007062341  -0.01221514  0.01203757  -0.003386858  0.007504131  -0.01255564  -0.0008966174  -0.01137684  
4644644644.64  -0.01156655  -0.00708125  -0.003532379  -0.01241528  -0.01196295  -0.007424209  -0.01029054  0.001912024  
4648648648.65  -0.007276555  0.01095931  -0.01282441  0.003571066  -0.007360293  0.01151802  0.003147559  0.009239968  
4652652652.65  0.01056402  0.007752139  0.004224108  0.01369423  0.01122634  0.007820286  0.008462167  -0.003725381  
4656656656.66  0.008102054  -0.01066018  0.01368839  -0.004958456  0.007895301  -0.01135236  -0.005169349  -0.007078692  
4660660660.66  -0.01081328  -0.008522631  -0.00562027  -0.01381834  -0.01185421  -0.008405999  -0.005693397  0.006022566  
4664664664.66  -0.008843415  0.01149494  -0.01365653  0.006341167  -0.008170621  0.01280147  0.006765727  0.00385944  
4668668668.67  0.0122328  0.008616415  0.006836848  0.01324334  0.01362666  0.007648118  0.001929723  -0.006729313  
