# Hz    S   RI   R   50.0
4000000000.0  0.003437792  0.0133042  0.00973885  0.02748896  0.004482432  0.02380436  -0.003060504  0.0208645  
4004004004.0  0.01349371  -0.003613324  0.02581958  -0.01162512  0.02390321  -0.004151955  0.02243797  0.003640877  
4008008008.01  -0.003826942  -0.0135157  -0.0129045  -0.02381966  -0.003998083  -0.02418379  0.003700205  -0.02415917  
4012012012.01  -0.01365689  0.003943242  -0.02212668  0.01358511  -0.02450891  0.003999565  -0.02562133  -0.003028597  
4016016016.02  0.004317604  0.01394144  0.01395051  0.02073945  0.003964419  0.02477838  -0.002452553  0.02660955  
4020020020.02  0.01401712  -0.004621464  0.01943085  -0.01396032  0.02532588  -0.004055063  0.02776849  0.001653342  
4024024024.02  -0.005045996  -0.01423601  -0.01402489  -0.01851718  -0.004317812  -0.02583274  0.0005007974  -0.02858605  
4028028028.03  -0.01448403  0.005661722  -0.01786067  0.0140244  -0.02661809  0.004952837  -0.029644  0.0008525687  
4032032032.03  0.00649244  0.01448224  0.01413544  0.01734311  0.006086305  0.02704096  0.002712853  0.02988117  
4036036036.04  0.01459265  -0.007479  0.01712874  -0.01423146  0.02764455  -0.007044394  0.03017296  -0.004187835  
4040040040.04  -0.008938659  -0.01441069  -0.01460705  -0.01715861  -0.008380151  -0.02857747  -0.006027641  -0.0308141  
4044044044.04  -0.01338861  0.0107398  -0.01698494  0.01549694  -0.02918578  0.01125833  -0.03102798  0.009118403  
4048048048.05  0.01233942  0.01151252  0.0163955  0.01671841  0.01473438  0.02869269  0.01235335  0.03020392  
4052052052.05  0.008569724  -0.0131812  0.01600507  -0.01753425  0.02684633  -0.01828603  0.02846435  -0.01566597  
4056056056.06  -0.01192886  -0.005069573  -0.01854632  -0.01482547  -0.02118464  -0.02328617  -0.01871699  -0.02560585  
4060060060.06  -0.003394058  0.0082079  -0.0134455  0.01906514  -0.01922098  0.0222879  -0.02198983  0.02096592  
4064064064.06  0.005763037  0.005537326  0.0189532  0.01211906  0.02227172  0.01582981  0.02199112  0.01783508  
4068068068.07  0.00734145  -0.005140705  0.01128024  -0.01864461  0.01297545  -0.0216932  0.01410247  -0.02204463  
4072072072.07  -0.007012425  -0.009165114  -0.01826776  -0.01077784  -0.02122877  -0.01088604  -0.02141429  -0.01090309  
4076076076.08  -0.00878845  0.009006938  -0.01062227  0.01809704  -0.008796823  0.02079485  -0.008333609  0.02074945  
4080080080.08  0.01001999  0.007780713  0.01802811  0.01057873  0.02010037  0.006993396  0.02007948  0.00614378  
4084084084.08  0.006794553  -0.0107578  0.01096704  -0.01827677  0.005493551  -0.01946505  0.004032487  -0.01933193  
4088088088.09  -0.01120431  -0.005789309  -0.01902413  -0.01129122  -0.01903945  -0.004315112  -0.01885301  -0.002161884  
4092092092.09  -0.004917887  0.01148132  -0.01145357  0.02010229  -0.003333472  0.01872293  -0.0001926989  0.01827239  
4096096096.1  0.01169552  0.004105913  0.02147115  0.01125101  0.01843129  0.002249785  0.01750911  -0.001926381  
4100100100.1  0.003382392  -0.01194479  0.01064538  -0.02315239  0.001310213  -0.01850577  -0.00399582  -0.01633837  
4104104104.1  -0.01221738  -0.002548628  -0.02458864  -0.009440203  -0.01858936  -0.0001283371  -0.01470553  0.005776532  
4108108108.11  -0.001795189  0.01252961  -0.007789199  0.02596853  0.0008906461  0.01857685  0.006808358  0.01279925  
4112112112.11  0.01274109  0.0009618826  0.02657825  0.005882727  0.01862277  -0.002126875  0.01070492  -0.007511729  
4116116116.12  -5.289411e-05  -0.01280133  0.003926036  -0.02694397  -0.003296769  -0.01853162  -0.007236572  -0.008723421  
4120120120.12  -0.01263594  0.0006865736  -0.02661498  -0.002368202  -0.0182149  0.00422631  -0.007349466  0.006126292  
4124124124.12  0.001296916  0.01263272  -0.001444941  0.02666966  0.005016824  0.01779492  0.004900841  0.006505102  
4128128128.13  0.01263675  -0.001636854  0.0268971  3.369467e-05  0.01783543  -0.005356588  0.006543591  -0.003257939  
4132132132.13  -0.002159382  -0.01270179  -0.001613069  -0.02698784  -0.005990465  -0.0179527  -0.001873348  -0.007128143  
4136136136.14  -0.01267706  0.002652809  -0.02656399  0.003301068  -0.01781894  0.00657589  -0.008276126  0.0007365707  
4140140140.14  0.002871962  0.01272898  0.00444933  0.02586511  0.006851862  0.01795205  -0.0003322702  0.009637935  
4144144144.14  0.01275645  -0.003138022  0.02546311  -0.005850149  0.0179587  -0.007172965  0.01144008  0.0008609907  
4148148148.15  -0.003135361  -0.01281724  -0.006965543  -0.02440982  -0.007000281  -0.01810621  0.00121116  -0.0131922  
4152152152.15  -0.01331721  0.003033644  -0.02385803  0.007608124  -0.01888219  0.006825247  -0.01564131  -0.001313158  
4156156156.16  0.003003931  0.0138374  0.008144017  0.02305162  0.006669545  0.01975205  -0.001072587  0.01768601  
4160160160.16  0.01457691  -0.003170457  0.02241838  -0.008760274  0.02090307  -0.006822281  0.02004754  0.0001890838  
4164164164.16  -0.003473427  -0.0153407  -0.009310752  -0.02202682  -0.007158024  -0.02216906  -0.0010115  -0.02214251  
4168168168.17  -0.01605217  0.00385116  -0.02124716  0.009650277  -0.02342534  0.007613326  -0.02388143  0.002430318  
4172172172.17  0.004204115  0.01677379  0.009743541  0.02102902  0.008151727  0.02476224  0.003809708  0.02560953  
4176176176.18  0.01759169  -0.004615268  0.02097831  -0.009874069  0.02607818  -0.008736047  0.0269807  -0.005202879  
4180180180.18  -0.005319997  -0.01858117  -0.01026689  -0.02132145  -0.009538771  -0.02779995  -0.006692164  -0.0286501  
4184184184.18  -0.01940556  0.006086661  -0.02161817  0.01085707  -0.02982936  0.01078209  -0.03052231  0.008608863  
4188188188.19  0.007184787  0.02012583  0.01187232  0.02220984  0.01289354  0.03167915  0.01116619  0.0322548  
4192192192.19  0.02059193  -0.008279599  0.02254488  -0.01343942  0.03316411  -0.01577638  0.03354317  -0.01451589  
4196196196.2  -0.009603977  -0.02074631  -0.01542928  -0.02233228  -0.01949886  -0.03325139  -0.01883143  -0.03360203  
4200200200.2  -0.02092417  0.01034148  -0.02130063  0.01726506  -0.03197154  0.02261577  -0.03183583  0.02265895  
4204204204.2  0.0117593  0.02153334  0.01855054  0.02017049  0.02507831  0.03028152  0.02544237  0.02949391  
4208208208.21  0.02123393  -0.013516  0.01904191  -0.01955338  0.02798537  -0.02673276  0.02672712  -0.02708031  
4212212212.21  -0.01526647  -0.02025407  -0.02050624  -0.01789565  -0.02792235  -0.02541691  -0.02833159  -0.02384586  
4216216216.22  -0.01893668  0.01641722  -0.01702092  0.02122585  -0.0229011  0.02817853  -0.02122842  0.02876323  
4220220220.22  0.01691346  0.01732918  0.02214138  0.01623401  0.0279044  0.02045093  0.02888161  0.0186704  
4224224224.22  0.01581804  -0.01690612  0.0153035  -0.02318393  0.01823019  -0.02682237  0.01603458  -0.02839137  
4228228228.23  -0.0166787  -0.01452888  -0.02458969  -0.01448265  -0.02565626  -0.01659769  -0.02786202  -0.01361155  
4232232232.23  -0.01332058  0.01607368  -0.0130734  0.02630939  -0.01542462  0.02411113  -0.01114294  0.02680749  
4236236236.24  0.015335  0.01249894  0.02805462  0.01105153  0.02255799  0.01457132  0.02524432  0.008716598  
4240240240.24  0.01203738  -0.01445263  0.008568493  -0.02970389  0.01426214  -0.02120178  0.006877207  -0.02328778  
4244244244.24  -0.01384367  -0.0117572  -0.03063192  -0.004732528  -0.0201079  -0.01402141  -0.02092755  -0.004913002  
4248248248.25  -0.01148527  0.0133908  -0.0006584688  0.03045721  -0.01382095  0.01924412  -0.003631359  0.0178226  
4252252252.25  0.0128597  0.01114061  0.02864358  -0.003575894  0.01833507  0.01346213  0.01449833  0.003399934  
4256256256.26  0.01087511  -0.01224701  -0.006338441  -0.02538159  0.01317191  -0.01740244  0.004090098  -0.0116078  
4260260260.26  -0.01181206  -0.01075814  -0.02213016  0.007408479  -0.01652655  -0.01304235  -0.00941744  -0.005472924  
4264264264.26  -0.0106342  0.01121823  0.007303266  0.01928921  -0.01297479  0.0156956  -0.006913577  0.008278606  
4268268268.27  0.01084473  0.01081111  0.01730304  -0.006702678  0.015007  0.01315966  0.007147582  0.00785187  
4272272272.27  0.01065822  -0.01066342  -0.006397495  -0.01602515  0.0131156  -0.01458143  0.009183127  -0.006468024  
4276276276.28  -0.01029978  -0.01064891  -0.01502876  0.005655156  -0.01416725  -0.01307684  -0.006138112  -0.01016956  
4280280280.28  -0.01064546  0.01021755  0.005354345  0.01447026  -0.01295357  0.01395776  -0.01103284  0.005951934  
4284284284.28  0.01014198  0.01038194  0.01380881  -0.004944862  0.01367042  0.01267874  0.006040128  0.01172769  
4288288288.29  0.0102322  -0.009976675  -0.004448884  -0.01353841  0.01245406  -0.01342075  0.01210453  -0.006288826  
4292292292.29  -0.00981626  -0.01001228  -0.01325575  0.004160951  -0.0131488  -0.01216769  -0.006509167  -0.01251421  
4296296296.3  -0.009871689  0.009687266  0.003892056  0.01323156  -0.01201407  0.01294442  -0.01282412  0.006774275  
4300300300.3  0.009532759  0.009675658  0.01293958  -0.003827436  0.01281827  0.01168624  0.007350751  0.01304695  
4304304304.3  0.00951797  -0.009495844  -0.00352651  -0.01280025  0.01150542  -0.01280067  0.01311037  -0.007960702  
4308308308.31  -0.00942192  -0.009311398  -0.01280344  0.003136652  -0.01277973  -0.0112792  -0.008573357  -0.01304442  
4312312312.31  -0.009228191  0.009347663  0.002861274  0.01292299  -0.01112869  0.01282024  -0.01298291  0.009278924  
4316316316.32  0.009390792  0.009083655  0.01315241  -0.002670875  0.0130899  0.01106355  0.01019501  0.0127549  
4320320320.32  0.009187242  -0.009469453  -0.002327568  -0.01357103  0.01109391  -0.01362098  0.01269583  -0.01127395  
4324324324.32  -0.009709437  -0.009100064  -0.01418232  0.002196084  -0.01453669  -0.01087765  -0.01279561  -0.01223083  
4328328328.33  -0.008867307  0.009914089  0.002377184  0.01491061  -0.0105521  0.01558884  -0.01156007  0.01431491  
4332332332.33  0.009840933  0.009135395  0.01548314  -0.002646582  0.01685465  0.00998998  0.0158782  0.01033706  
4336336336.34  0.009914019  -0.0104291  -0.002812711  -0.0162487  0.00919664  -0.01843249  0.009177506  -0.01765223  
4340340340.34  -0.01173215  -0.01098737  -0.01700481  0.003355535  -0.02008392  -0.007985367  -0.01954339  -0.007281691  
4344344344.34  -0.01112965  0.01450869  0.004020567  0.01776704  -0.006405706  0.02202595  -0.004999263  0.02133652  
4348348348.35  0.01746966  0.009870642  0.01846253  -0.005046637  0.02403622  0.003938998  0.02284054  0.001825034  
4352352352.35  0.007209609  -0.0198641  -0.005977153  -0.01901995  0.0007416843  -0.02540759  -0.001308491  -0.02341188  
4356356356.36  -0.02114203  -0.004209163  -0.01949404  0.007031892  -0.02609388  0.002779937  -0.02383215  0.004586203  
4360360360.36  -0.0009523384  0.0215598  0.008212446  0.01974967  0.006388071  0.02573924  0.007947456  0.02335564  
4364364364.36  0.02110826  -0.002014294  0.02022582  -0.009376152  0.02486756  -0.00972972  0.02266806  -0.01110361  
4368368368.37  -0.00452992  -0.02002618  -0.01084501  -0.02061004  -0.01252224  -0.0232109  -0.01412233  -0.02150602  
4372372372.37  -0.01877864  0.006442691  -0.0208579  0.01248939  -0.02141767  0.01466844  -0.01983998  0.0167654  
4376376376.38  0.007860985  0.0172455  0.01434373  0.02086754  0.01605997  0.01930836  0.01911917  0.01768294  
4380380380.38  0.01597984  -0.008874256  0.02099713  -0.01638093  0.01770872  -0.01697328  0.01546801  -0.02087104  
4384384384.38  -0.009546139  -0.01469204  -0.01923655  -0.02042258  -0.01754108  -0.01610621  -0.02238792  -0.01273676  
4388388388.39  -0.01356029  0.00999963  -0.01965623  0.02192067  -0.01486467  0.01780292  -0.009903621  0.02280867  
4392392392.39  0.01017393  0.0125489  0.02545078  0.01727445  0.01787302  0.0138284  0.02258239  0.007015676  
4396396396.4  0.01185014  -0.01024524  0.01351048  -0.02813282  0.01300631  -0.01787472  0.004376674  -0.02129567  
4400400400.4  -0.01025983  -0.01129681  -0.02892296  -0.008758078  -0.01768051  -0.0123996  -0.01891344  -0.002547221  
4404404404.4  -0.01076588  0.0101411  -0.00399756  0.02803541  -0.01188187  0.01749889  -0.002185258  0.01634029  
4408408408.41  0.01015892  0.01033057  0.02581546  0.0007060372  0.01722503  0.01150772  0.01404042  0.002759837  
4412412412.41  0.009981077  -0.009951812  -0.001522736  -0.02323595  0.01137147  -0.01679925  0.004368255  -0.0122604  
4416416416.42  -0.009649601  -0.009746088  -0.02083072  0.002440315  -0.01640468  -0.01142123  -0.01162925  -0.006214686  
4420420420.42  -0.009731671  0.009295098  0.003118484  0.01862156  -0.01162479  0.01601084  -0.007734347  0.01134847  
4424424424.42  0.009059149  0.009733329  0.01687063  -0.003183014  0.01567855  0.01190681  0.01132513  0.009123565  
4428428428.43  0.009861423  -0.008704511  -0.003174095  -0.01516228  0.01231897  -0.01529371  0.0103382  -0.01156686  
4432432432.43  -0.008443818  -0.01014611  -0.01393818  0.002606518  -0.01494173  -0.01284214  -0.01181539  -0.01151555  
4436436436.44  -0.01030846  0.008205841  0.002171466  0.01315179  -0.01348475  0.01468583  -0.01264508  0.01214585  
4440440440.44  0.008027932  0.01058791  0.01272329  -0.001646802  0.01452567  0.01423384  0.01271401  0.01369709  
4444444444.44  0.01086508  -0.007738949  -0.001524048  -0.01212414  0.01498653  -0.01442307  0.01456428  -0.01319125  
4448448448.45  -0.007522372  -0.0111565  -0.01171507  0.001008009  -0.01456413  -0.01578881  -0.01395326  -0.01555253  
4452452452.45  -0.01152908  0.007142561  0.000700745  0.01126227  -0.01642228  0.01462605  -0.01624185  0.01453781  
4456456456.46  0.007037967  0.01169132  0.0114259  -0.0003649213  0.01498042  0.01704777  0.01561747  0.01693002  
4460460460.46  0.01185703  -0.006447865  -0.0002354218  -0.01129628  0.01745241  -0.01515921  0.01727684  -0.01632846  
4464464464.46  -0.005180906  -0.01226792  -0.01089504  -3.499065e-05  -0.0152851  -0.01778349  -0.01706793  -0.01744378  
4468468468.47  -0.01325812  0.004306302  -0.0005042849  0.01119109  -0.01817861  0.01550364  -0.01806632  0.01796559  
4472472472.47  0.002871362  0.01516026  0.01164187  0.0006092759  0.01535943  0.01836316  0.0192078  0.01808451  
4476476476.48  0.01863261  -0.003005346  0.0005852869  -0.01151502  0.01907558  -0.01500013  0.0177005  -0.02022004  
4480480480.48  -0.005069128  -0.02081059  -0.01162463  -0.0008498871  -0.01507176  -0.02025696  -0.02084571  -0.01725299  
4484484484.48  -0.02179644  0.007105524  -0.001045784  0.01201875  -0.02124366  0.01565685  -0.01667998  0.02154424  
4488488488.49  0.008956319  0.02224074  0.01211791  0.001472387  0.01649183  0.02204541  0.02195054  0.01631399  
4492492492.49  0.02251582  -0.0106517  0.001434529  -0.01283498  0.02287789  -0.01770132  0.01582168  -0.02265443  
4496496496.5  -0.01219781  -0.02247931  -0.0131513  -0.001346646  -0.0191221  -0.02322773  -0.02334503  -0.01507813  
4500500500.5  -0.02269411  0.0141587  -0.001747136  0.01351458  -0.02362064  0.02127844  -0.01450037  0.02408878  
4504504504.5  0.01641134  0.02193655  0.01445714  0.002027658  0.02359266  0.02259297  0.02475201  0.01331965  
4508508508.51  0.02050911  -0.01887997  0.002159264  -0.01581333  0.02085163  -0.02604507  0.01200183  -0.02572327  
4512512512.51  -0.02034  -0.01780767  -0.01681332  -0.001548857  -0.02729314  -0.01782315  -0.02595083  -0.01005387  
4516516516.52  -0.01532039  0.02067769  -0.001413429  0.01762309  -0.01487663  0.02754511  -0.008309229  0.02576787  
4520520520.52  0.02062088  0.0130419  0.01899255  0.001596288  0.0270208  0.01208758  0.02561668  0.006914028  
4524524524.52  0.01103851  -0.02010009  0.001532539  -0.0209207  0.009958834  -0.02602959  0.005604248  -0.02553631  
4528528528.53  -0.0194348  -0.009403178  -0.023861  -0.001090529  -0.02507882  -0.0081499  -0.0261206  -0.003973877  
4532532532.53  -0.007865709  0.01861821  0.000616705  0.02738342  -0.006308789  0.02401046  -0.001273644  0.02655204  
4536536536.54  0.01774608  0.00652237  0.03158257  -0.004187713  0.02279913  0.004702702  0.02658653  -0.002288999  
4540540540.54  0.005257997  -0.01664253  -0.01073988  -0.03491748  0.003272696  -0.02133442  -0.006719668  -0.02507045  
4544544544.54  -0.01557297  -0.004335039  -0.03440572  0.01980201  -0.01993851  -0.002139966  -0.02095068  0.01080922  
4548548548.55  -0.003670116  0.01448409  0.02766121  0.0290747  -0.001392699  0.01859513  0.0122656  0.01528283  
4552552552.55  0.01383295  0.003187712  0.02147555  -0.03131814  0.01776372  0.0008420688  0.01062145  -0.01064228  
4556556556.56  0.002573947  -0.01314519  -0.03136706  -0.01453928  -1.92437e-05  -0.01706871  -0.008395128  -0.008533785  
4560560560.56  -0.01268456  -0.001891433  -0.009479428  0.02985017  -0.0163525  0.001133214  -0.007393635  0.00691072  
4564564564.56  -0.0009412665  0.01208497  0.02764293  0.005606303  0.00231914  0.0153561  0.005416692  0.007040737  
4568568568.57  0.01125428  7.753355e-05  0.003153567  -0.0247201  0.01442215  -0.003314268  0.007435409  -0.004498862  
4572572572.57  -0.0006594509  -0.01012129  -0.02225597  -0.001667661  -0.00423247  -0.01303268  -0.004722019  -0.007533586  
4576576576.58  -0.009203642  0.0009679341  -0.001052373  0.01993488  -0.01194653  0.004630187  -0.00764244  0.004606093  
4580580580.58  0.001189742  0.008492865  0.01804771  0.00115612  0.004806843  0.0112054  0.004528048  0.007987822  
4584584584.58  0.008085338  -0.001451933  0.001704334  -0.01684099  0.01108128  -0.00528249  0.008690729  -0.004951656  
4588588588.59  -0.001964091  -0.007656928  -0.01629647  -0.001974971  -0.006016132  -0.01074146  -0.005849439  -0.009220505  
4592592592.59  -0.007207103  0.002494948  -0.002241633  0.01577802  -0.01045347  0.006757831  -0.009606982  0.006702952  
4596596596.6  0.003097008  0.006779067  0.01559464  0.002445659  0.007665834  0.01032575  0.007847987  0.01008204  
4600600600.6  0.006373522  -0.003770271  0.002789917  -0.01538715  0.01022431  -0.008685914  0.01060456  -0.009262237  
4604604604.6  -0.004523892  -0.00560158  -0.01550378  -0.002719931  -0.009886771  -0.009805562  -0.0110934  -0.0104254  
4608608608.61  -0.005042799  0.005188491  -0.002822849  0.01552178  -0.009609145  0.01082614  -0.0102401  0.0122913  
4612612612.61  0.006062225  0.003831564  0.01581036  0.002667635  0.01233942  0.009153123  0.01406578  0.01003377  
4616616616.62  0.002298095  -0.006637874  0.002411952  -0.01598935  0.008375557  -0.01372493  0.00955165  -0.01567534  
4620620620.62  -0.006851162  -0.0005128621  -0.01614687  -0.002341101  -0.0152091  -0.008004638  -0.01721517  -0.009633433  
4624624624.62  0.002135102  0.006124628  -0.002083453  0.01649637  -0.006489825  0.01708443  -0.009084913  0.01952702  
4628628628.63  0.003221144  -0.004968784  0.01677752  0.001524777  0.01777179  0.003703851  0.02178081  0.00752282  
4632632632.63  -0.005690488  0.002605151  0.001020238  -0.01698849  0.001162701  -0.01609139  0.005393314  -0.02314983  
4636636636.64  0.008816036  0.0007490991  -0.01716189  -0.0001339777  -0.01326587  -0.00149805  -0.02424962  -0.003213314  
4640640640.64  -0.008147639  -0.009511472  0.0006861248  0.01678525  -0.00473289  0.0122472  -0.0009828741  0.02434455  
4644644644.64  -0.00399231  0.01445516  0.01616693  -0.001045485  0.01497798  0.007158831  0.0238791  -0.000810917  
4648648648.65  0.0160183  -0.002226326  -0.001105626  -0.01564666  0.006954881  -0.01788284  -0.002061083  -0.02305046  
4652652652.65  -0.007452831  -0.01460603  -0.01515673  0.0009389138  -0.02018014  -0.005503084  -0.02205428  0.002696182  
4656656656.66  -0.01217469  0.01028252  0.0003946828  0.01511155  -0.003654572  0.02111321  0.002794004  0.02148841  
4660660660.66  0.01184669  0.01002289  0.01556841  0.0002205715  0.02144538  0.002205201  0.0214246  -0.00281953  
4664664664.66  0.00788343  -0.01261197  0.0003248976  -0.01629972  0.0007903192  -0.02123768  -0.003131871  -0.02145144  
4668668668.67  -0.01284436  -0.006206053  -0.0169716  -0.0003947371  -0.02089687  0.0002128357  -0.02151233  0.003483483  
4672672672.67  -0.005010384  0.01261802  -0.0004769258  0.01798043  0.000981439  0.02022303  0.004041092  0.02138477  
