# Hz    S   RI   R   50.0
4000000000.0  0.01100447  0.01409795  0.02125561  0.01292067  0.01488451  0.02186042  0.004318266  0.0256464  
4004004004.0  0.01446099  -0.01140272  0.01220891  -0.02125194  0.02238676  -0.01491246  0.02684277  -0.005726439  
4008008008.01  -0.01183084  -0.01461087  -0.02107705  -0.01162403  -0.0152013  -0.02293359  -0.007465488  -0.02776737  
4012012012.01  -0.01487785  0.01229491  -0.01144054  0.02098854  -0.02353118  0.01584351  -0.02844027  0.009276908  
4016016016.02  0.01300968  0.01513952  0.02131848  0.011333  0.01677623  0.02396752  0.01123994  0.0287204  
4020020020.02  0.01518335  -0.01389931  0.01111146  -0.02151359  0.02423447  -0.01776053  0.02888275  -0.01326266  
4024024024.02  -0.01508674  -0.01509696  -0.0222507  -0.0109994  -0.0193216  -0.02459303  -0.01574859  -0.02886141  
4028028028.03  -0.01475583  0.01638413  -0.01073753  0.02281918  -0.02459525  0.02149801  -0.02831599  0.01863912  
4032032032.03  0.01796295  0.01403071  0.02370414  0.01051585  0.02410294  0.02379124  0.02186819  0.02682177  
4036036036.04  0.01275429  -0.01989049  0.01006496  -0.02495273  0.02269178  -0.02685493  0.02502585  -0.02487605  
4040040040.04  -0.0206715  -0.009730608  -0.0260592  -0.008750254  -0.02966928  -0.02003198  -0.02795891  -0.0217633  
4044044044.04  -0.00744109  0.02003988  -0.007259685  0.02711235  -0.01614008  0.03247743  -0.01743856  0.0306758  
4048048048.05  0.01925199  0.006761041  0.02755931  0.005607863  0.03334842  0.01124988  0.03181696  0.01226753  
4052052052.05  0.006095854  -0.0198944  0.003976937  -0.02745527  0.006638208  -0.03268041  0.007089104  -0.03149699  
4056056056.06  -0.02025164  -0.003956574  -0.02698058  -0.002487306  -0.03102877  -0.002634691  -0.02997569  -0.002484409  
4060060060.06  -0.002018436  0.0198654  -0.001679765  0.02644631  0.0001367627  0.028811  0.001023275  0.02784451  
4064064064.06  0.01875015  0.0002617596  0.02587428  0.001195387  0.02641061  -0.002349176  0.02538309  -0.00389413  
4068068068.07  -0.000594195  -0.01761953  0.001145008  -0.02582972  -0.003475762  -0.02430877  -0.005927255  -0.02329818  
4072072072.07  -0.01667159  0.001387488  -0.02623277  -0.0009978336  -0.02256914  0.004375575  -0.02134032  0.007862631  
4076076076.08  0.001877545  0.01586356  -0.000639727  0.02703613  0.004937705  0.02124119  0.009694965  0.01937472  
4080080080.08  0.01525628  -0.002245639  0.0281278  -9.143621e-05  0.02021149  -0.005324685  0.0173016  -0.01149734  
4084084084.08  -0.002527283  -0.01475382  -0.001542436  -0.02947044  -0.005865502  -0.01947195  -0.01299402  -0.01475697  
4088088088.09  -0.01443793  0.002719666  -0.03020655  0.003561208  -0.019034  0.006250927  -0.01213644  0.0139871  
4092092092.09  0.002997648  0.01427077  0.006014989  0.03022622  0.0067081  0.01873129  0.01424071  0.009123294  
4096096096.1  0.01422407  -0.003358933  0.02989848  -0.008398667  0.01860985  -0.007285349  0.006079975  -0.01362505  
4100100100.1  -0.003763918  -0.01422694  -0.01051867  -0.02850891  -0.007898726  -0.01849617  -0.01195046  -0.003802452  
4104104104.1  -0.01424385  0.004235981  -0.02702756  0.01202962  -0.01848349  0.008710197  -0.002499366  0.009675238  
4108108108.11  0.004744039  0.01433075  0.01279554  0.02550988  0.009380447  0.01846145  0.007410693  0.00211232  
4112112112.11  0.01427345  -0.005365294  0.02419391  -0.01332708  0.01828169  -0.01020978  0.002582195  -0.005352231  
4116116116.12  -0.005948087  -0.01409044  -0.0136928  -0.02314858  -0.01104879  -0.0180414  -0.003532462  -0.003594761  
4120120120.12  -0.01384229  0.006300418  -0.02236457  0.01379599  -0.0178451  0.01150726  -0.005077282  0.00193118  
4124124124.12  0.00660896  0.01372294  0.01413887  0.02186786  0.01200373  0.01760838  0.0006703029  0.007177867  
4128128128.13  0.01366669  -0.00676079  0.0214396  -0.0147546  0.01762998  -0.01230754  0.00956447  -0.0002222076  
4132132132.13  -0.007099294  -0.0136801  -0.01547832  -0.02064963  -0.01256979  -0.01772818  -0.0002333  -0.01201342  
4136136136.14  -0.01376242  0.007280226  -0.01969425  0.01609855  -0.01780198  0.01286092  -0.01433209  0.0008136805  
4140140140.14  0.007336225  0.01376282  0.01643154  0.01857419  0.01296609  0.01801255  0.001794977  0.01650175  
4144144144.14  0.01398294  -0.007366307  0.01749107  -0.01627036  0.0183537  -0.01300954  0.01841041  -0.002966764  
4148148148.15  -0.007314543  -0.01414015  -0.01606395  -0.01679436  -0.01288225  -0.01881617  -0.004353744  -0.01992449  
4152152152.15  -0.01474438  0.007129833  -0.01639654  0.0156414  -0.0198336  0.01268246  -0.02145686  0.005422178  
4156156156.16  0.007138129  0.01549832  0.01528547  0.01612144  0.01268601  0.02100474  0.006681066  0.02282768  
4160160160.16  0.01639364  -0.007394931  0.01635815  -0.01516526  0.02251825  -0.01303459  0.02453017  -0.008111483  
4164164164.16  -0.007740029  -0.01720272  -0.01517786  -0.01638074  -0.0136997  -0.02401629  -0.009747251  -0.02590127  
4168168168.17  -0.01805869  0.008381848  -0.01666973  0.01523475  -0.02557709  0.01458473  -0.02730838  0.01148152  
4172172172.17  0.008901566  0.01872938  0.01546826  0.01691115  0.01574145  0.02702569  0.01351141  0.0284287  
4176176176.18  0.01935447  -0.009448107  0.01741504  -0.01585418  0.02840921  -0.01719741  0.02942771  -0.01568035  
4180180180.18  -0.0101104  -0.02037453  -0.01673428  -0.01836208  -0.01881926  -0.03006339  -0.0177003  -0.03057817  
4184184184.18  -0.0214867  0.01045403  -0.01883615  0.01791284  -0.03157562  0.02131226  -0.03169025  0.02074244  
4188188188.19  0.01148959  0.02357501  0.0195532  0.01925721  0.02432034  0.03254091  0.0243454  0.03198877  
4192192192.19  0.02534899  -0.01453767  0.01929323  -0.02165135  0.03281933  -0.02846318  0.03138584  -0.02850925  
4196196196.2  -0.0185025  -0.02520785  -0.02407416  -0.01835662  -0.03297505  -0.03078492  -0.03286873  -0.02886436  
4200200200.2  -0.02322503  0.0217522  -0.01679672  0.02567331  -0.02687456  0.03596291  -0.0247775  0.03552404  
4204204204.2  0.02373816  0.02031536  0.02691989  0.01515875  0.03707152  0.02263816  0.0365785  0.02068033  
4208208208.21  0.0173881  -0.02417016  0.01381042  -0.02767123  0.01874048  -0.03641982  0.01698677  -0.03649045  
4212212212.21  -0.02385722  -0.01484754  -0.02867985  -0.01284602  -0.03502307  -0.01563821  -0.035841  -0.01375527  
4216216216.22  -0.01296072  0.02305083  -0.01191068  0.03002086  -0.01361197  0.03328645  -0.01102677  0.03501771  
4220220220.22  0.02199185  0.01154495  0.03166951  0.01072294  0.03147535  0.01209449  0.03403872  0.008392416  
4224224224.22  0.01045679  -0.02095446  0.008801245  -0.03397242  0.01078364  -0.02957625  0.005322084  -0.03258863  
4228228228.23  -0.01981119  -0.009554927  -0.03645386  -0.005914589  -0.02767638  -0.01002141  -0.03064044  -0.002281851  
4232232232.23  -0.008986363  0.01862526  -0.00117993  0.03823926  -0.009610752  0.02578215  0.0006791361  0.0275012  
4236236236.24  0.01750397  0.008691617  0.03822559  -0.004693882  0.02408536  0.009488848  0.02302604  -0.002680185  
4240240240.24  0.008725829  -0.01641642  -0.009762231  -0.03580448  0.009692298  -0.02258669  -0.002706481  -0.01853141  
4244244244.24  -0.01574783  -0.008860377  -0.0318174  0.01415516  -0.02153169  -0.009980948  -0.01439066  0.001768189  
4248248248.25  -0.00883168  0.01525301  0.01645517  0.02672051  -0.01012787  0.02067291  -0.000345818  0.01112994  
4252252252.25  0.014653  0.008734197  0.02200836  -0.01647035  0.01989077  0.01011577  0.009235424  0.002743889  
4256256256.26  0.008651464  -0.01413357  -0.01539017  -0.01853185  0.01001803  -0.01899072  0.004755178  -0.008220393  
4260260260.26  -0.01352955  -0.008645258  -0.01610407  0.0139397  -0.01810486  -0.01014472  -0.007592315  -0.00650879  
4264264264.26  -0.008753  0.01300139  0.01244552  0.0144979  -0.0103109  0.01730478  -0.007868222  0.007184792  
4268268268.27  0.01263602  0.008922257  0.01352624  -0.01099101  0.01677474  0.01052602  0.007016888  0.009135725  
4272272272.27  0.008957625  -0.01244488  -0.01000529  -0.01302819  0.01059491  -0.01645011  0.01021629  -0.007115938  
4276276276.28  -0.01210403  -0.00903126  -0.0126255  0.0090332  -0.01609442  -0.01070184  -0.007355293  -0.01104725  
4280280280.28  -0.009049171  0.0121264  0.00829794  0.01247187  -0.01065813  0.01594777  -0.01165783  0.007700865  
4284284284.28  0.01200214  0.008829721  0.01242415  -0.007677726  0.01571677  0.01046645  0.008071264  0.01210767  
4288288288.29  0.008744842  -0.0118566  -0.00722139  -0.01230708  0.01029042  -0.01551622  0.01244544  -0.008506397  
4292292292.29  -0.01172423  -0.008555253  -0.01240231  0.006718557  -0.01527109  -0.01012481  -0.009095346  -0.01280567  
4296296296.3  -0.008508183  0.01162118  0.006458058  0.0125997  -0.01001041  0.0152081  -0.01298435  0.009827022  
4300300300.3  0.01158345  0.008317934  0.01255307  -0.006202655  0.01522042  0.009746034  0.01062473  0.0128659  
4304304304.3  0.008088798  -0.0115779  -0.005945219  -0.01266321  0.009454021  -0.01531921  0.01262346  -0.0114756  
4308308308.31  -0.01151718  -0.007925005  -0.01283951  0.005572634  -0.01537939  -0.009327312  -0.0123501  -0.01232238  
4312312312.31  -0.007849224  0.01156484  0.005194072  0.01320871  -0.009299405  0.01556983  -0.01193734  0.01321515  
4316316316.32  0.01162928  0.007745102  0.01365752  -0.004987057  0.01611656  0.009185283  0.01432278  0.01154541  
4320320320.32  0.007587243  -0.01177656  -0.004813792  -0.01430047  0.009083734  -0.01695674  0.01105807  -0.01567515  
4324324324.32  -0.01193442  -0.007423594  -0.01508933  0.004761406  -0.01814189  -0.00866565  -0.017282  -0.01009987  
4328328328.33  -0.007286703  0.01153877  0.005041475  0.01586273  -0.007947977  0.01945659  -0.008805878  0.01897407  
4332332332.33  0.0114016  0.008747362  0.01647395  -0.005372707  0.02076257  0.007005316  0.02041259  0.007115961  
4336336336.34  0.01045458  -0.01355027  -0.005755255  -0.01741678  0.005918936  -0.02248435  0.005345734  -0.02213791  
4340340340.34  -0.01689459  -0.01046933  -0.01827704  0.00649288  -0.02447009  -0.004146396  -0.02395675  -0.002808896  
4344344344.34  -0.008587149  0.02009285  0.007413672  0.0190713  -0.001616075  0.02628498  0.0002928203  0.02514243  
4348348348.35  0.02241781  0.005680006  0.01980386  -0.00859895  0.02798766  -0.00168973  0.02613417  -0.00391658  
4352352352.35  0.002167155  -0.0238143  -0.009851386  -0.02017269  -0.005838478  -0.02862756  -0.007760825  -0.0260023  
4356356356.36  -0.02392891  0.001513384  -0.02056004  0.01106746  -0.02801472  0.009918716  -0.02531175  0.01125026  
4360360360.36  0.004923045  0.02300903  0.01242294  0.02066295  0.01346337  0.02636759  0.01459302  0.02396388  
4364364364.36  0.02152513  -0.007478788  0.02087683  -0.01373131  0.02429136  -0.01625771  0.02230862  -0.0175275  
4368368368.37  -0.009370157  -0.01975373  -0.01521081  -0.02119711  -0.01827147  -0.02188333  -0.02012892  -0.02024782  
4372372372.37  -0.01799835  0.01068409  -0.02140995  0.01704318  -0.01960009  0.01945701  -0.01793981  0.02232903  
4376376376.38  0.01154605  0.01630542  0.0192658  0.02132745  0.02021739  0.01746425  0.02414107  0.01521437  
4380380380.38  0.01482794  -0.01198669  0.02105523  -0.02175647  0.0156928  -0.02045927  0.01235518  -0.02530645  
4384384384.38  -0.0121534  -0.01353896  -0.02499927  -0.02007561  -0.02032126  -0.01425676  -0.02585972  -0.009137644  
4388388388.39  -0.01257064  0.01221342  -0.01825407  0.02813888  -0.0132443  0.02018667  -0.005977137  0.02533416  
4392392392.39  0.01210417  0.01173674  0.0314277  0.01453756  0.01996545  0.01242202  0.02389782  0.002935898  
4396396396.4  0.01108992  -0.01204762  0.009550016  -0.0333696  0.01180315  -0.01969295  0.0006902444  -0.02127421  
4400400400.4  -0.01184866  -0.01060826  -0.03269437  -0.004284591  -0.01943929  -0.01142457  -0.01778566  9.032456e-05  
4404404404.4  -0.01014633  0.01163563  0.0005558509  0.03046909  -0.01093946  0.01905803  -0.0008602052  0.01502471  
4408408408.41  0.01142012  0.009849136  0.02710091  -0.003105961  0.01858058  0.01077247  0.01298829  0.002345226  
4412412412.41  0.009608165  -0.01112437  -0.004528304  -0.02409411  0.01081965  -0.01807557  0.004507918  -0.01153051  
4416416416.42  -0.0107609  -0.009474888  -0.02148737  0.005086356  -0.01762426  -0.01100007  -0.01124671  -0.006723174  
4420420420.42  -0.009549656  0.01037318  0.005256644  0.019098  -0.01130271  0.01712003  -0.008351333  0.01124094  
4424424424.42  0.01004517  0.009683  0.01719503  -0.004980544  0.0166837  0.01173092  0.01149013  0.009763801  
4428428428.43  0.009914503  -0.009643511  -0.004451608  -0.01561243  0.01225766  -0.01624715  0.01099442  -0.01175001  
4432432432.43  -0.009405548  -0.01024813  -0.0144347  0.003639818  -0.01590786  -0.0129813  -0.01208436  -0.01223518  
4436436436.44  -0.01047897  0.009197221  0.003084931  0.01376155  -0.01369355  0.01562219  -0.0134837  0.01253867  
4440440440.44  0.008845415  0.01078509  0.01317713  -0.002468911  0.01537356  0.01448925  0.01311788  0.01443168  
4444444444.44  0.01125972  -0.00855823  -0.002107132  -0.01254404  0.01535656  -0.0151823  0.0153351  -0.01339523  
4448448448.45  -0.008415734  -0.01160836  -0.012188  0.001394376  -0.01534285  -0.01632379  -0.01404518  -0.01659573  
4452452452.45  -0.01199276  0.008199734  0.0008690752  0.01194328  -0.01711342  0.01545264  -0.01747164  0.01490213  
4456456456.46  0.008039628  0.0121384  0.01209853  -0.0005420502  0.01581719  0.01777147  0.01603588  0.01807439  
4460460460.46  0.01237483  -0.007646132  -0.0002533298  -0.0120423  0.01834667  -0.01594189  0.01863777  -0.01676368  
4464464464.46  -0.006426653  -0.0126434  -0.01162423  -0.0001570178  -0.01611824  -0.01882473  -0.01754054  -0.018805  
4468468468.47  -0.01330756  0.00550463  -0.000650756  0.01212141  -0.01934917  0.01646682  -0.01952915  0.01855893  
4472472472.47  0.003676533  0.01507767  0.01234954  0.0008183122  0.01639723  0.01945099  0.01960387  0.01953915  
4476476476.48  0.01888651  -0.003289325  0.00100385  -0.01241324  0.02017099  -0.01603493  0.01946219  -0.02074816  
4480480480.48  -0.005416936  -0.02147171  -0.01265536  -0.001299305  -0.01610234  -0.02139849  -0.02164608  -0.01926747  
4484484484.48  -0.02263806  0.007739183  -0.001406499  0.01295214  -0.02249047  0.01661559  -0.01857569  0.02241551  
4488488488.49  0.009587443  0.02311779  0.0131248  0.002049979  0.01737402  0.0235255  0.02290582  0.01834442  
4492492492.49  0.02344178  -0.01121144  0.002003902  -0.01365957  0.02453653  -0.01857636  0.01788382  -0.02373709  
4496496496.5  -0.01286675  -0.02381325  -0.01399552  -0.002456579  -0.02022874  -0.02538206  -0.02449146  -0.01752506  
4500500500.5  -0.02408047  0.01502411  -0.00303814  0.01480539  -0.02574305  0.02258176  -0.01696347  0.02544567  
4504504504.5  0.01758576  0.0235311  0.01588609  0.003195456  0.02529666  0.02504971  0.02665706  0.01585716  
4508508508.51  0.02186827  -0.02040913  0.003104153  -0.01741333  0.02308633  -0.02818787  0.01418102  -0.02794832  
4512512512.51  -0.02179959  -0.01926345  -0.01812754  -0.002863325  -0.02964995  -0.01994834  -0.02807886  -0.01210021  
4516516516.52  -0.01669614  0.0225058  -0.002869783  0.01918231  -0.0167799  0.03014983  -0.01034472  0.02810186  
4520520520.52  0.02247624  0.01419319  0.02050654  0.003077308  0.02964377  0.01384969  0.02802219  0.008904285  
4524524524.52  0.01205285  -0.02204862  0.003325444  -0.02252929  0.01142795  -0.02873293  0.007461473  -0.02812394  
4528528528.53  -0.0212677  -0.01022286  -0.02548085  -0.003259935  -0.02758032  -0.009387203  -0.02866787  -0.005790876  
4532532532.53  -0.008629353  0.02043263  -0.002162331  0.02934141  -0.007623083  0.02652581  -0.003302718  0.02941793  
4536536536.54  0.01962395  0.007365272  0.03454428  -0.0004936494  0.02536365  0.006043371  0.03002359  -0.000336401  
4540540540.54  0.005988544  -0.018599  -0.006947001  -0.03945762  0.004401942  -0.02391558  -0.005478499  -0.02906875  
4544544544.54  -0.01729729  -0.005038494  -0.04101518  0.01688343  -0.02235658  -0.003301727  -0.02534068  0.0107777  
4548548548.55  -0.004582569  0.0162488  0.02708412  0.03620486  -0.002821942  0.02097348  0.01353987  0.01850935  
4552552552.55  0.01559409  0.003982362  0.02785958  -0.03270762  0.02015181  0.002067401  0.01248771  -0.01212346  
4556556556.56  0.003443496  -0.01503685  -0.03359883  -0.0196576  0.001428877  -0.01950597  -0.00928835  -0.009165631  
4560560560.56  -0.01459685  -0.002616408  -0.01340159  0.03215902  -0.01893022  -0.0002267703  -0.007619676  0.006705252  
4564564564.56  -0.001718083  0.01406552  0.02954952  0.008805565  0.0009049348  0.01817873  0.004397232  0.007307985  
4568568568.57  0.01317926  0.0007803896  0.005910673  -0.02646545  0.01700634  -0.002102422  0.007752768  -0.003155385  
4572572572.57  7.706558e-05  -0.01212671  -0.02361433  -0.004031683  -0.002901344  -0.01560359  -0.002669756  -0.008044241  
4576576576.58  -0.01114655  0.0002723332  -0.003412766  0.02092864  -0.01443356  0.003244762  -0.008519007  0.002326218  
4580580580.58  0.0003414963  0.01029528  0.01886482  0.003378716  0.003214217  0.01357177  0.00223607  0.008893855  
4584584584.58  0.009890807  -0.0004102377  0.003824888  -0.01735853  0.01329876  -0.003376254  0.009640152  -0.002140359  
4588588588.59  -0.0006826181  -0.009649044  -0.01636388  -0.004239737  -0.003779913  -0.01323628  -0.00250952  -0.01038486  
4592592592.59  -0.009390172  0.001094666  -0.004671421  0.0156453  -0.0132739  0.004354192  -0.01130309  0.002992174  
4596596596.6  0.001591494  0.009213063  0.01518604  0.005040845  0.005137386  0.01319811  0.003957657  0.01207555  
4600600600.6  0.009055271  -0.002172636  0.005579802  -0.01490775  0.01329249  -0.005830031  0.01290497  -0.005024646  
4604604604.6  -0.002755107  -0.008740898  -0.01484016  -0.005953595  -0.006726109  -0.01334594  -0.006541349  -0.01350392  
4608608608.61  -0.00845187  0.003377856  -0.006279392  0.01494544  -0.01340601  0.007323712  -0.01365974  0.007496304  
4612612612.61  0.004181433  0.008148323  0.01514981  0.006438147  0.008454945  0.01371687  0.008952877  0.01415885  
4616616616.62  0.007835256  -0.005169617  0.006751764  -0.01537995  0.01427815  -0.009537751  0.01501814  -0.01022628  
4620620620.62  -0.006119241  -0.006953961  -0.01568699  -0.006764093  -0.01100571  -0.01478025  -0.01185378  -0.0156794  
4624624624.62  -0.005808834  0.0073675  -0.007156159  0.01618757  -0.01520015  0.01363488  -0.01673247  0.01458313  
4628628628.63  0.008178985  0.003224152  0.0170517  0.00678692  0.01621296  0.0142305  0.0174929  0.01627099  
4632632632.63  -0.0007238642  -0.007475499  0.006584766  -0.01770946  0.01201251  -0.01853166  0.01545276  -0.02015628  
4636636636.64  -0.001914797  0.005188538  -0.0184756  -0.005666405  -0.01889572  -0.008119484  -0.02299995  -0.01375247  
4640640640.64  0.002053846  -0.00794556  -0.004594175  0.01860632  -0.006618414  0.01513103  -0.01145045  0.02479243  
4644644644.64  -0.01112872  0.008959704  0.01840638  0.003792318  0.01318719  0.0100839  0.02590318  0.008793334  
4648648648.65  0.01737639  0.00551505  0.003115469  -0.01798598  0.0132198  -0.01561618  0.006466975  -0.02576228  
4652652652.65  -0.001809701  -0.0196224  -0.01723709  -0.002972032  -0.01934704  -0.01363485  -0.02514395  -0.005033823  
4656656656.66  -0.01849127  0.007335579  -0.003309107  0.01691815  -0.01211386  0.02210048  -0.00416657  0.0247535  
4660660660.66  0.01083793  0.01643267  0.01699033  0.00383546  0.02367912  0.01001299  0.02466638  0.003557611  
4664664664.66  0.01377727  -0.01298553  0.003975172  -0.01738288  0.007905052  -0.02412905  0.00285257  -0.02437793  
4668668668.67  -0.01383752  -0.01156308  -0.0176786  -0.0042917  -0.02409037  -0.006302245  -0.0243154  -0.002384986  
4672672672.67  -0.009746159  0.01410381  -0.004681417  0.01819288  -0.004983777  0.02348773  -0.001993033  0.02413156  
